Time [s],Packet ID,Address,Data,Read/Write,ACK/NAK
0.000030000000000,0,0xAA,0x00,Write,ACK
0.000052500000000,0,0xAA,0x84,Write,ACK
0.000075000000000,0,0xAA,0x00,Write,ACK
0.000097500000000,0,0xAA,0x00,Write,ACK
0.000120000000000,0,0xAA,0x20,Write,ACK
0.002687000000000,1,0xAB,0x00,Read,ACK
0.002709500000000,1,0xAB,0x00,Read,ACK
0.002732000000000,1,0xAB,0x00,Read,ACK
0.002754500000000,1,0xAB,0x22,Read,NAK
0.003927500000000,2,0xAB,0xE9,Read,ACK
0.003950000000000,2,0xAB,0x10,Read,ACK
0.003972500000000,2,0xAB,0x20,Read,ACK
0.003995000000000,2,0xAB,0x11,Read,ACK
0.004017500000000,2,0xAB,0x78,Read,ACK
0.004040000000000,2,0xAB,0xC3,Read,ACK
0.004062500000000,2,0xAB,0x37,Read,ACK
0.004085000000000,2,0xAB,0x2F,Read,ACK
0.004107500000000,2,0xAB,0xEB,Read,ACK
0.004130000000000,2,0xAB,0x2E,Read,ACK
0.004152500000000,2,0xAB,0x3B,Read,ACK
0.004175000000000,2,0xAB,0x8B,Read,ACK
0.004197500000000,2,0xAB,0xF5,Read,ACK
0.004220000000000,2,0xAB,0x31,Read,ACK
0.004242500000000,2,0xAB,0x3D,Read,ACK
0.004265000000000,2,0xAB,0x60,Read,ACK
0.004287500000000,2,0xAB,0x0C,Read,ACK
0.004310000000000,2,0xAB,0xB5,Read,ACK
0.004332500000000,2,0xAB,0x7C,Read,ACK
0.004355000000000,2,0xAB,0x8E,Read,ACK
0.004377500000000,2,0xAB,0x58,Read,ACK
0.004400000000000,2,0xAB,0xEE,Read,ACK
0.004422500000000,2,0xAB,0x31,Read,ACK
0.004445000000000,2,0xAB,0xFD,Read,ACK
0.004467500000000,2,0xAB,0xCE,Read,ACK
0.004490000000000,2,0xAB,0xD7,Read,ACK
0.004512500000000,2,0xAB,0xFE,Read,ACK
0.004535000000000,2,0xAB,0x1E,Read,ACK
0.004557500000000,2,0xAB,0x2A,Read,ACK
0.004580000000000,2,0xAB,0x3B,Read,ACK
0.004602500000000,2,0xAB,0x7C,Read,ACK
0.004625000000000,2,0xAB,0x42,Read,ACK
0.004647500000000,2,0xAB,0x90,Read,ACK
0.004670000000000,2,0xAB,0x00,Read,NAK
0.020859500000000,3,0xAA,0x00,Write,ACK
0.020882000000000,3,0xAA,0xC1,Write,ACK
0.020904500000000,3,0xAA,0x01,Write,ACK
0.020927000000000,3,0xAA,0x00,Write,ACK
0.020949500000000,3,0xAA,0x10,Write,ACK
0.020972000000000,3,0xAA,0x00,Write,ACK
0.020995000000000,3,0xAA,0x01,Write,ACK
0.021017500000000,3,0xAA,0x02,Write,ACK
0.021040000000000,3,0xAA,0x03,Write,ACK
0.021062500000000,3,0xAA,0x04,Write,ACK
0.021085000000000,3,0xAA,0x05,Write,ACK
0.021107500000000,3,0xAA,0x06,Write,ACK
0.021130000000000,3,0xAA,0x07,Write,ACK
0.021152500000000,3,0xAA,0x08,Write,ACK
0.021175000000000,3,0xAA,0x09,Write,ACK
0.021197500000000,3,0xAA,0x0A,Write,ACK
0.021220000000000,3,0xAA,0x0B,Write,ACK
0.021242500000000,3,0xAA,0x0C,Write,ACK
0.021265000000000,3,0xAA,0x0D,Write,ACK
0.021287500000000,3,0xAA,0x0E,Write,ACK
0.021310000000000,3,0xAA,0x0F,Write,ACK
0.029358500000000,4,0xAB,0x00,Read,ACK
0.029381000000000,4,0xAB,0x00,Read,ACK
0.029403500000000,4,0xAB,0x00,Read,ACK
0.029426000000000,4,0xAB,0x02,Read,NAK
0.030599000000000,5,0xAB,0x90,Read,ACK
0.030621500000000,5,0xAB,0x00,Read,NAK
0.032082000000000,6,0xAA,0x00,Write,ACK
0.032104500000000,6,0xAA,0xC2,Write,ACK
0.032127000000000,6,0xAA,0x01,Write,ACK
0.032149500000000,6,0xAA,0x00,Write,ACK
0.032172000000000,6,0xAA,0x10,Write,ACK
0.032194500000000,6,0xAA,0x00,Write,ACK
0.032217000000000,6,0xAA,0x11,Write,ACK
0.032239500000000,6,0xAA,0x22,Write,ACK
0.032262000000000,6,0xAA,0x33,Write,ACK
0.032284500000000,6,0xAA,0x44,Write,ACK
0.032307000000000,6,0xAA,0x55,Write,ACK
0.032329500000000,6,0xAA,0x66,Write,ACK
0.032352000000000,6,0xAA,0x77,Write,ACK
0.032374500000000,6,0xAA,0x88,Write,ACK
0.032397000000000,6,0xAA,0x99,Write,ACK
0.032419500000000,6,0xAA,0xAA,Write,ACK
0.032442000000000,6,0xAA,0xBB,Write,ACK
0.032464500000000,6,0xAA,0xCC,Write,ACK
0.032487000000000,6,0xAA,0xDD,Write,ACK
0.032509500000000,6,0xAA,0xEE,Write,ACK
0.032532000000000,6,0xAA,0xFF,Write,ACK
0.032554500000000,6,0xAA,0xFF,Write,ACK
0.040950000000000,7,0xAB,0x00,Read,ACK
0.040972500000000,7,0xAB,0x00,Read,ACK
0.040995000000000,7,0xAB,0x00,Read,ACK
0.041017500000000,7,0xAB,0x12,Read,NAK
0.042190500000000,8,0xAB,0x69,Read,ACK
0.042213000000000,8,0xAB,0xC4,Read,ACK
0.042235500000000,8,0xAB,0xE0,Read,ACK
0.042258000000000,8,0xAB,0xD8,Read,ACK
0.042280500000000,8,0xAB,0x6A,Read,ACK
0.042303000000000,8,0xAB,0x7B,Read,ACK
0.042325500000000,8,0xAB,0x04,Read,ACK
0.042348000000000,8,0xAB,0x30,Read,ACK
0.042370500000000,8,0xAB,0xD8,Read,ACK
0.042393000000000,8,0xAB,0xCD,Read,ACK
0.042415500000000,8,0xAB,0xB7,Read,ACK
0.042438000000000,8,0xAB,0x80,Read,ACK
0.042460500000000,8,0xAB,0x70,Read,ACK
0.042483000000000,8,0xAB,0xB4,Read,ACK
0.042505500000000,8,0xAB,0xC5,Read,ACK
0.042528000000000,8,0xAB,0x5A,Read,ACK
0.042550500000000,8,0xAB,0x90,Read,ACK
0.042573000000000,8,0xAB,0x00,Read,NAK
0.050076000000000,9,0xAA,0x00,Write,ACK
0.050098500000000,9,0xAA,0xC3,Write,ACK
0.050121000000000,9,0xAA,0x01,Write,ACK
0.050143500000000,9,0xAA,0x00,Write,ACK
0.050166000000000,9,0xAA,0x10,Write,ACK
0.050188500000000,9,0xAA,0x69,Write,ACK
0.050211000000000,9,0xAA,0xC4,Write,ACK
0.050233500000000,9,0xAA,0xE0,Write,ACK
0.050256000000000,9,0xAA,0xD8,Write,ACK
0.050278500000000,9,0xAA,0x6A,Write,ACK
0.050301000000000,9,0xAA,0x7B,Write,ACK
0.050323500000000,9,0xAA,0x04,Write,ACK
0.050346000000000,9,0xAA,0x30,Write,ACK
0.050368500000000,9,0xAA,0xD8,Write,ACK
0.050391000000000,9,0xAA,0xCD,Write,ACK
0.050413500000000,9,0xAA,0xB7,Write,ACK
0.050436000000000,9,0xAA,0x80,Write,ACK
0.050458500000000,9,0xAA,0x70,Write,ACK
0.050481000000000,9,0xAA,0xB4,Write,ACK
0.050503500000000,9,0xAA,0xC5,Write,ACK
0.050526000000000,9,0xAA,0x5A,Write,ACK
0.050548500000000,9,0xAA,0xFF,Write,ACK
0.058943500000000,10,0xAB,0x00,Read,ACK
0.058966000000000,10,0xAB,0x00,Read,ACK
0.058988500000000,10,0xAB,0x00,Read,ACK
0.059011000000000,10,0xAB,0x12,Read,NAK
0.060184000000000,11,0xAB,0x00,Read,ACK
0.060206500000000,11,0xAB,0x11,Read,ACK
0.060229000000000,11,0xAB,0x22,Read,ACK
0.060251500000000,11,0xAB,0x33,Read,ACK
0.060274000000000,11,0xAB,0x44,Read,ACK
0.060296500000000,11,0xAB,0x55,Read,ACK
0.060319000000000,11,0xAB,0x66,Read,ACK
0.060341500000000,11,0xAB,0x77,Read,ACK
0.060364000000000,11,0xAB,0x88,Read,ACK
0.060386500000000,11,0xAB,0x99,Read,ACK
0.060409000000000,11,0xAB,0xAA,Read,ACK
0.060431500000000,11,0xAB,0xBB,Read,ACK
0.060454000000000,11,0xAB,0xCC,Read,ACK
0.060476500000000,11,0xAB,0xDD,Read,ACK
0.060499000000000,11,0xAB,0xEE,Read,ACK
0.060521500000000,11,0xAB,0xFF,Read,ACK
0.060544000000000,11,0xAB,0x90,Read,ACK
0.060566500000000,11,0xAB,0x00,Read,NAK
0.068087000000000,12,0xAA,0x00,Write,ACK
0.068109500000000,12,0xAA,0xC1,Write,ACK
0.068132000000000,12,0xAA,0x01,Write,ACK
0.068154500000000,12,0xAA,0x01,Write,ACK
0.068177000000000,12,0xAA,0x10,Write,ACK
0.068199500000000,12,0xAA,0x69,Write,ACK
0.068222000000000,12,0xAA,0xC4,Write,ACK
0.068244500000000,12,0xAA,0xE0,Write,ACK
0.068267000000000,12,0xAA,0xD8,Write,ACK
0.068289500000000,12,0xAA,0x6A,Write,ACK
0.068312000000000,12,0xAA,0x7B,Write,ACK
0.068334500000000,12,0xAA,0x04,Write,ACK
0.068357000000000,12,0xAA,0x30,Write,ACK
0.068379500000000,12,0xAA,0xD8,Write,ACK
0.068402000000000,12,0xAA,0xCD,Write,ACK
0.068424500000000,12,0xAA,0xB7,Write,ACK
0.068447000000000,12,0xAA,0x80,Write,ACK
0.068469500000000,12,0xAA,0x70,Write,ACK
0.068492000000000,12,0xAA,0xB4,Write,ACK
0.068514500000000,12,0xAA,0xC5,Write,ACK
0.068537000000000,12,0xAA,0x5A,Write,ACK
0.076586000000000,13,0xAB,0x00,Read,ACK
0.076608500000000,13,0xAB,0x00,Read,ACK
0.076631000000000,13,0xAB,0x00,Read,ACK
0.076653500000000,13,0xAB,0x02,Read,NAK
0.077826000000000,14,0xAB,0x90,Read,ACK
0.077848500000000,14,0xAB,0x00,Read,NAK
0.079309500000000,15,0xAA,0x00,Write,ACK
0.079332000000000,15,0xAA,0xC2,Write,ACK
0.079354500000000,15,0xAA,0x01,Write,ACK
0.079377000000000,15,0xAA,0x01,Write,ACK
0.079399500000000,15,0xAA,0x10,Write,ACK
0.079422000000000,15,0xAA,0x00,Write,ACK
0.079444500000000,15,0xAA,0x11,Write,ACK
0.079467000000000,15,0xAA,0x22,Write,ACK
0.079489500000000,15,0xAA,0x33,Write,ACK
0.079512000000000,15,0xAA,0x44,Write,ACK
0.079534500000000,15,0xAA,0x55,Write,ACK
0.079557000000000,15,0xAA,0x66,Write,ACK
0.079579500000000,15,0xAA,0x77,Write,ACK
0.079602000000000,15,0xAA,0x88,Write,ACK
0.079624500000000,15,0xAA,0x99,Write,ACK
0.079647000000000,15,0xAA,0xAA,Write,ACK
0.079669500000000,15,0xAA,0xBB,Write,ACK
0.079692000000000,15,0xAA,0xCC,Write,ACK
0.079714500000000,15,0xAA,0xDD,Write,ACK
0.079737000000000,15,0xAA,0xEE,Write,ACK
0.079759500000000,15,0xAA,0xFF,Write,ACK
0.079782000000000,15,0xAA,0xFF,Write,ACK
0.088177500000000,16,0xAB,0x00,Read,ACK
0.088200000000000,16,0xAB,0x00,Read,ACK
0.088222500000000,16,0xAB,0x00,Read,ACK
0.088245000000000,16,0xAB,0x12,Read,NAK
0.089418000000000,17,0xAB,0x7D,Read,ACK
0.089440500000000,17,0xAB,0x77,Read,ACK
0.089463000000000,17,0xAB,0x86,Read,ACK
0.089485500000000,17,0xAB,0xBE,Read,ACK
0.089508000000000,17,0xAB,0x32,Read,ACK
0.089530500000000,17,0xAB,0xD0,Read,ACK
0.089553000000000,17,0xAB,0x59,Read,ACK
0.089575500000000,17,0xAB,0xA6,Read,ACK
0.089598000000000,17,0xAB,0x0C,Read,ACK
0.089620500000000,17,0xAB,0xA8,Read,ACK
0.089643000000000,17,0xAB,0x02,Read,ACK
0.089665500000000,17,0xAB,0x1A,Read,ACK
0.089688000000000,17,0xAB,0x65,Read,ACK
0.089710500000000,17,0xAB,0xDD,Read,ACK
0.089733000000000,17,0xAB,0x9F,Read,ACK
0.089755500000000,17,0xAB,0x09,Read,ACK
0.089778000000000,17,0xAB,0x90,Read,ACK
0.089800500000000,17,0xAB,0x00,Read,NAK
0.097303500000000,18,0xAA,0x00,Write,ACK
0.097326000000000,18,0xAA,0xC3,Write,ACK
0.097348500000000,18,0xAA,0x01,Write,ACK
0.097371000000000,18,0xAA,0x01,Write,ACK
0.097393500000000,18,0xAA,0x10,Write,ACK
0.097416000000000,18,0xAA,0x7D,Write,ACK
0.097438500000000,18,0xAA,0x77,Write,ACK
0.097461000000000,18,0xAA,0x86,Write,ACK
0.097483500000000,18,0xAA,0xBE,Write,ACK
0.097506000000000,18,0xAA,0x32,Write,ACK
0.097528500000000,18,0xAA,0xD0,Write,ACK
0.097551000000000,18,0xAA,0x59,Write,ACK
0.097573500000000,18,0xAA,0xA6,Write,ACK
0.097596000000000,18,0xAA,0x0C,Write,ACK
0.097618500000000,18,0xAA,0xA8,Write,ACK
0.097641000000000,18,0xAA,0x02,Write,ACK
0.097663500000000,18,0xAA,0x1A,Write,ACK
0.097686000000000,18,0xAA,0x65,Write,ACK
0.097708500000000,18,0xAA,0xDD,Write,ACK
0.097731000000000,18,0xAA,0x9F,Write,ACK
0.097753500000000,18,0xAA,0x09,Write,ACK
0.097776000000000,18,0xAA,0xFF,Write,ACK
0.106171000000000,19,0xAB,0x00,Read,ACK
0.106193500000000,19,0xAB,0x00,Read,ACK
0.106216000000000,19,0xAB,0x00,Read,ACK
0.106238500000000,19,0xAB,0x12,Read,NAK
0.107411500000000,20,0xAB,0x00,Read,ACK
0.107434000000000,20,0xAB,0x11,Read,ACK
0.107456500000000,20,0xAB,0x22,Read,ACK
0.107479000000000,20,0xAB,0x33,Read,ACK
0.107501500000000,20,0xAB,0x44,Read,ACK
0.107524000000000,20,0xAB,0x55,Read,ACK
0.107546500000000,20,0xAB,0x66,Read,ACK
0.107569000000000,20,0xAB,0x77,Read,ACK
0.107591500000000,20,0xAB,0x88,Read,ACK
0.107614000000000,20,0xAB,0x99,Read,ACK
0.107636500000000,20,0xAB,0xAA,Read,ACK
0.107659000000000,20,0xAB,0xBB,Read,ACK
0.107681500000000,20,0xAB,0xCC,Read,ACK
0.107704000000000,20,0xAB,0xDD,Read,ACK
0.107726500000000,20,0xAB,0xEE,Read,ACK
0.107749000000000,20,0xAB,0xFF,Read,ACK
0.107771500000000,20,0xAB,0x90,Read,ACK
0.107794000000000,20,0xAB,0x00,Read,NAK
0.115323000000000,21,0xAA,0x00,Write,ACK
0.115345500000000,21,0xAA,0xC1,Write,ACK
0.115368000000000,21,0xAA,0x01,Write,ACK
0.115390500000000,21,0xAA,0x00,Write,ACK
0.115413000000000,21,0xAA,0x18,Write,ACK
0.115435500000000,21,0xAA,0x00,Write,ACK
0.115458000000000,21,0xAA,0x01,Write,ACK
0.115480500000000,21,0xAA,0x02,Write,ACK
0.115503000000000,21,0xAA,0x03,Write,ACK
0.115525500000000,21,0xAA,0x04,Write,ACK
0.115548000000000,21,0xAA,0x05,Write,ACK
0.115570500000000,21,0xAA,0x06,Write,ACK
0.115593000000000,21,0xAA,0x07,Write,ACK
0.115615500000000,21,0xAA,0x08,Write,ACK
0.115638000000000,21,0xAA,0x09,Write,ACK
0.115660500000000,21,0xAA,0x0A,Write,ACK
0.115683000000000,21,0xAA,0x0B,Write,ACK
0.115705500000000,21,0xAA,0x0C,Write,ACK
0.115728000000000,21,0xAA,0x0D,Write,ACK
0.115750500000000,21,0xAA,0x0E,Write,ACK
0.115773000000000,21,0xAA,0x0F,Write,ACK
0.115795500000000,21,0xAA,0x10,Write,ACK
0.115818000000000,21,0xAA,0x11,Write,ACK
0.115840500000000,21,0xAA,0x12,Write,ACK
0.115863000000000,21,0xAA,0x13,Write,ACK
0.115885500000000,21,0xAA,0x14,Write,ACK
0.115908000000000,21,0xAA,0x15,Write,ACK
0.115930500000000,21,0xAA,0x16,Write,ACK
0.115953000000000,21,0xAA,0x17,Write,ACK
0.126747500000000,22,0xAB,0x00,Read,ACK
0.126770000000000,22,0xAB,0x00,Read,ACK
0.126792500000000,22,0xAB,0x00,Read,ACK
0.126815000000000,22,0xAB,0x02,Read,NAK
0.127987500000000,23,0xAB,0x90,Read,ACK
0.128010000000000,23,0xAB,0x00,Read,NAK
0.129471000000000,24,0xAA,0x00,Write,ACK
0.129493500000000,24,0xAA,0xC2,Write,ACK
0.129516000000000,24,0xAA,0x01,Write,ACK
0.129538500000000,24,0xAA,0x00,Write,ACK
0.129561000000000,24,0xAA,0x10,Write,ACK
0.129583500000000,24,0xAA,0x00,Write,ACK
0.129606000000000,24,0xAA,0x11,Write,ACK
0.129628500000000,24,0xAA,0x22,Write,ACK
0.129651000000000,24,0xAA,0x33,Write,ACK
0.129673500000000,24,0xAA,0x44,Write,ACK
0.129696000000000,24,0xAA,0x55,Write,ACK
0.129718500000000,24,0xAA,0x66,Write,ACK
0.129741000000000,24,0xAA,0x77,Write,ACK
0.129763500000000,24,0xAA,0x88,Write,ACK
0.129786000000000,24,0xAA,0x99,Write,ACK
0.129808500000000,24,0xAA,0xAA,Write,ACK
0.129831000000000,24,0xAA,0xBB,Write,ACK
0.129853500000000,24,0xAA,0xCC,Write,ACK
0.129876000000000,24,0xAA,0xDD,Write,ACK
0.129898500000000,24,0xAA,0xEE,Write,ACK
0.129921000000000,24,0xAA,0xFF,Write,ACK
0.129943500000000,24,0xAA,0xFF,Write,ACK
0.138339000000000,25,0xAB,0x00,Read,ACK
0.138361500000000,25,0xAB,0x00,Read,ACK
0.138384000000000,25,0xAB,0x00,Read,ACK
0.138406500000000,25,0xAB,0x12,Read,NAK
0.139579500000000,26,0xAB,0xDD,Read,ACK
0.139602000000000,26,0xAB,0xA9,Read,ACK
0.139624500000000,26,0xAB,0x7C,Read,ACK
0.139647000000000,26,0xAB,0xA4,Read,ACK
0.139669500000000,26,0xAB,0x86,Read,ACK
0.139692000000000,26,0xAB,0x4C,Read,ACK
0.139714500000000,26,0xAB,0xDF,Read,ACK
0.139737000000000,26,0xAB,0xE0,Read,ACK
0.139759500000000,26,0xAB,0x6E,Read,ACK
0.139782000000000,26,0xAB,0xAF,Read,ACK
0.139804500000000,26,0xAB,0x70,Read,ACK
0.139827000000000,26,0xAB,0xA0,Read,ACK
0.139849500000000,26,0xAB,0xEC,Read,ACK
0.139872000000000,26,0xAB,0x0D,Read,ACK
0.139894500000000,26,0xAB,0x71,Read,ACK
0.139917000000000,26,0xAB,0x91,Read,ACK
0.139939500000000,26,0xAB,0x90,Read,ACK
0.139962000000000,26,0xAB,0x00,Read,NAK
0.147464500000000,27,0xAA,0x00,Write,ACK
0.147487000000000,27,0xAA,0xC3,Write,ACK
0.147509500000000,27,0xAA,0x01,Write,ACK
0.147532000000000,27,0xAA,0x00,Write,ACK
0.147554500000000,27,0xAA,0x10,Write,ACK
0.147577000000000,27,0xAA,0xDD,Write,ACK
0.147599500000000,27,0xAA,0xA9,Write,ACK
0.147622000000000,27,0xAA,0x7C,Write,ACK
0.147644500000000,27,0xAA,0xA4,Write,ACK
0.147667000000000,27,0xAA,0x86,Write,ACK
0.147689500000000,27,0xAA,0x4C,Write,ACK
0.147712000000000,27,0xAA,0xDF,Write,ACK
0.147734500000000,27,0xAA,0xE0,Write,ACK
0.147757000000000,27,0xAA,0x6E,Write,ACK
0.147779500000000,27,0xAA,0xAF,Write,ACK
0.147802000000000,27,0xAA,0x70,Write,ACK
0.147824500000000,27,0xAA,0xA0,Write,ACK
0.147847000000000,27,0xAA,0xEC,Write,ACK
0.147869500000000,27,0xAA,0x0D,Write,ACK
0.147892000000000,27,0xAA,0x71,Write,ACK
0.147914500000000,27,0xAA,0x91,Write,ACK
0.147937000000000,27,0xAA,0xFF,Write,ACK
0.156332500000000,28,0xAB,0x00,Read,ACK
0.156355000000000,28,0xAB,0x00,Read,ACK
0.156378000000000,28,0xAB,0x00,Read,ACK
0.156400500000000,28,0xAB,0x12,Read,NAK
0.157573000000000,29,0xAB,0x00,Read,ACK
0.157595500000000,29,0xAB,0x11,Read,ACK
0.157618000000000,29,0xAB,0x22,Read,ACK
0.157640500000000,29,0xAB,0x33,Read,ACK
0.157663000000000,29,0xAB,0x44,Read,ACK
0.157685500000000,29,0xAB,0x55,Read,ACK
0.157708000000000,29,0xAB,0x66,Read,ACK
0.157730500000000,29,0xAB,0x77,Read,ACK
0.157753000000000,29,0xAB,0x88,Read,ACK
0.157775500000000,29,0xAB,0x99,Read,ACK
0.157798000000000,29,0xAB,0xAA,Read,ACK
0.157820500000000,29,0xAB,0xBB,Read,ACK
0.157843000000000,29,0xAB,0xCC,Read,ACK
0.157865500000000,29,0xAB,0xDD,Read,ACK
0.157888000000000,29,0xAB,0xEE,Read,ACK
0.157910500000000,29,0xAB,0xFF,Read,ACK
0.157933000000000,29,0xAB,0x90,Read,ACK
0.157955500000000,29,0xAB,0x00,Read,NAK
0.165475500000000,30,0xAA,0x00,Write,ACK
0.165498000000000,30,0xAA,0xC1,Write,ACK
0.165520500000000,30,0xAA,0x01,Write,ACK
0.165543000000000,30,0xAA,0x01,Write,ACK
0.165565500000000,30,0xAA,0x10,Write,ACK
0.165588000000000,30,0xAA,0x69,Write,ACK
0.165610500000000,30,0xAA,0xC4,Write,ACK
0.165633000000000,30,0xAA,0xE0,Write,ACK
0.165655500000000,30,0xAA,0xD8,Write,ACK
0.165678000000000,30,0xAA,0x6A,Write,ACK
0.165700500000000,30,0xAA,0x7B,Write,ACK
0.165723000000000,30,0xAA,0x04,Write,ACK
0.165745500000000,30,0xAA,0x30,Write,ACK
0.165768000000000,30,0xAA,0xD8,Write,ACK
0.165790500000000,30,0xAA,0xCD,Write,ACK
0.165813000000000,30,0xAA,0xB7,Write,ACK
0.165835500000000,30,0xAA,0x80,Write,ACK
0.165858000000000,30,0xAA,0x70,Write,ACK
0.165880500000000,30,0xAA,0xB4,Write,ACK
0.165903000000000,30,0xAA,0xC5,Write,ACK
0.165925500000000,30,0xAA,0x5A,Write,ACK
0.173975000000000,31,0xAB,0x00,Read,ACK
0.173997500000000,31,0xAB,0x00,Read,ACK
0.174020000000000,31,0xAB,0x00,Read,ACK
0.174042500000000,31,0xAB,0x02,Read,NAK
0.175215500000000,32,0xAB,0x90,Read,ACK
0.175238000000000,32,0xAB,0x00,Read,NAK
0.176698000000000,33,0xAA,0x00,Write,ACK
0.176720500000000,33,0xAA,0xC2,Write,ACK
0.176743000000000,33,0xAA,0x01,Write,ACK
0.176765500000000,33,0xAA,0x01,Write,ACK
0.176788000000000,33,0xAA,0x10,Write,ACK
0.176810500000000,33,0xAA,0x00,Write,ACK
0.176833000000000,33,0xAA,0x11,Write,ACK
0.176855500000000,33,0xAA,0x22,Write,ACK
0.176878000000000,33,0xAA,0x33,Write,ACK
0.176900500000000,33,0xAA,0x44,Write,ACK
0.176923000000000,33,0xAA,0x55,Write,ACK
0.176945500000000,33,0xAA,0x66,Write,ACK
0.176968000000000,33,0xAA,0x77,Write,ACK
0.176990500000000,33,0xAA,0x88,Write,ACK
0.177013000000000,33,0xAA,0x99,Write,ACK
0.177035500000000,33,0xAA,0xAA,Write,ACK
0.177058000000000,33,0xAA,0xBB,Write,ACK
0.177080500000000,33,0xAA,0xCC,Write,ACK
0.177103000000000,33,0xAA,0xDD,Write,ACK
0.177125500000000,33,0xAA,0xEE,Write,ACK
0.177148000000000,33,0xAA,0xFF,Write,ACK
0.177170500000000,33,0xAA,0xFF,Write,ACK
0.185566000000000,34,0xAB,0x00,Read,ACK
0.185588500000000,34,0xAB,0x00,Read,ACK
0.185611000000000,34,0xAB,0x00,Read,ACK
0.185633500000000,34,0xAB,0x12,Read,NAK
0.186806500000000,35,0xAB,0x32,Read,ACK
0.186829000000000,35,0xAB,0x2A,Read,ACK
0.186851500000000,35,0xAB,0xC9,Read,ACK
0.186874000000000,35,0xAB,0xE8,Read,ACK
0.186896500000000,35,0xAB,0xA4,Read,ACK
0.186919000000000,35,0xAB,0x38,Read,ACK
0.186941500000000,35,0xAB,0xF8,Read,ACK
0.186964000000000,35,0xAB,0x3A,Read,ACK
0.186986500000000,35,0xAB,0x75,Read,ACK
0.187009000000000,35,0xAB,0x99,Read,ACK
0.187031500000000,35,0xAB,0xBF,Read,ACK
0.187054000000000,35,0xAB,0x7B,Read,ACK
0.187076500000000,35,0xAB,0x07,Read,ACK
0.187099000000000,35,0xAB,0x68,Read,ACK
0.187121500000000,35,0xAB,0x12,Read,ACK
0.187144000000000,35,0xAB,0x01,Read,ACK
0.187166500000000,35,0xAB,0x90,Read,ACK
0.187189000000000,35,0xAB,0x00,Read,NAK
0.194692000000000,36,0xAA,0x00,Write,ACK
0.194714500000000,36,0xAA,0xC3,Write,ACK
0.194737000000000,36,0xAA,0x01,Write,ACK
0.194759500000000,36,0xAA,0x01,Write,ACK
0.194782000000000,36,0xAA,0x10,Write,ACK
0.194804500000000,36,0xAA,0x32,Write,ACK
0.194827000000000,36,0xAA,0x2A,Write,ACK
0.194849500000000,36,0xAA,0xC9,Write,ACK
0.194872000000000,36,0xAA,0xE8,Write,ACK
0.194894500000000,36,0xAA,0xA4,Write,ACK
0.194917000000000,36,0xAA,0x38,Write,ACK
0.194939500000000,36,0xAA,0xF8,Write,ACK
0.194962000000000,36,0xAA,0x3A,Write,ACK
0.194984500000000,36,0xAA,0x75,Write,ACK
0.195007000000000,36,0xAA,0x99,Write,ACK
0.195029500000000,36,0xAA,0xBF,Write,ACK
0.195052000000000,36,0xAA,0x7B,Write,ACK
0.195074500000000,36,0xAA,0x07,Write,ACK
0.195097000000000,36,0xAA,0x68,Write,ACK
0.195119500000000,36,0xAA,0x12,Write,ACK
0.195142000000000,36,0xAA,0x01,Write,ACK
0.195164500000000,36,0xAA,0xFF,Write,ACK
0.203560000000000,37,0xAB,0x00,Read,ACK
0.203582500000000,37,0xAB,0x00,Read,ACK
0.203605000000000,37,0xAB,0x00,Read,ACK
0.203627500000000,37,0xAB,0x12,Read,NAK
0.204800500000000,38,0xAB,0x00,Read,ACK
0.204823000000000,38,0xAB,0x11,Read,ACK
0.204845500000000,38,0xAB,0x22,Read,ACK
0.204868000000000,38,0xAB,0x33,Read,ACK
0.204890500000000,38,0xAB,0x44,Read,ACK
0.204913000000000,38,0xAB,0x55,Read,ACK
0.204935500000000,38,0xAB,0x66,Read,ACK
0.204958000000000,38,0xAB,0x77,Read,ACK
0.204980500000000,38,0xAB,0x88,Read,ACK
0.205003000000000,38,0xAB,0x99,Read,ACK
0.205025500000000,38,0xAB,0xAA,Read,ACK
0.205048000000000,38,0xAB,0xBB,Read,ACK
0.205070500000000,38,0xAB,0xCC,Read,ACK
0.205093000000000,38,0xAB,0xDD,Read,ACK
0.205115500000000,38,0xAB,0xEE,Read,ACK
0.205138000000000,38,0xAB,0xFF,Read,ACK
0.205160500000000,38,0xAB,0x90,Read,ACK
0.205183000000000,38,0xAB,0x00,Read,NAK
0.212720500000000,39,0xAA,0x00,Write,ACK
0.212743000000000,39,0xAA,0xC1,Write,ACK
0.212765500000000,39,0xAA,0x01,Write,ACK
0.212788000000000,39,0xAA,0x00,Write,ACK
0.212810500000000,39,0xAA,0x20,Write,ACK
0.212833000000000,39,0xAA,0x00,Write,ACK
0.212855500000000,39,0xAA,0x01,Write,ACK
0.212878000000000,39,0xAA,0x02,Write,ACK
0.212900500000000,39,0xAA,0x03,Write,ACK
0.212923000000000,39,0xAA,0x04,Write,ACK
0.212945500000000,39,0xAA,0x05,Write,ACK
0.212968000000000,39,0xAA,0x06,Write,ACK
0.212990500000000,39,0xAA,0x07,Write,ACK
0.213013000000000,39,0xAA,0x08,Write,ACK
0.213035500000000,39,0xAA,0x09,Write,ACK
0.213058000000000,39,0xAA,0x0A,Write,ACK
0.213080500000000,39,0xAA,0x0B,Write,ACK
0.213103000000000,39,0xAA,0x0C,Write,ACK
0.213125500000000,39,0xAA,0x0D,Write,ACK
0.213148000000000,39,0xAA,0x0E,Write,ACK
0.213170500000000,39,0xAA,0x0F,Write,ACK
0.213193000000000,39,0xAA,0x10,Write,ACK
0.213215500000000,39,0xAA,0x11,Write,ACK
0.213238000000000,39,0xAA,0x12,Write,ACK
0.213260500000000,39,0xAA,0x13,Write,ACK
0.213283000000000,39,0xAA,0x14,Write,ACK
0.213305500000000,39,0xAA,0x15,Write,ACK
0.213328000000000,39,0xAA,0x16,Write,ACK
0.213350500000000,39,0xAA,0x17,Write,ACK
0.213373000000000,39,0xAA,0x18,Write,ACK
0.213395500000000,39,0xAA,0x19,Write,ACK
0.213418000000000,39,0xAA,0x1A,Write,ACK
0.213440500000000,39,0xAA,0x1B,Write,ACK
0.213463000000000,39,0xAA,0x1C,Write,ACK
0.213485500000000,39,0xAA,0x1D,Write,ACK
0.213508000000000,39,0xAA,0x1E,Write,ACK
0.213530500000000,39,0xAA,0x1F,Write,ACK
0.227613000000000,40,0xAB,0x00,Read,ACK
0.227635500000000,40,0xAB,0x00,Read,ACK
0.227658000000000,40,0xAB,0x00,Read,ACK
0.227680500000000,40,0xAB,0x02,Read,NAK
0.228853500000000,41,0xAB,0x90,Read,ACK
0.228876000000000,41,0xAB,0x00,Read,NAK
0.230336500000000,42,0xAA,0x00,Write,ACK
0.230359000000000,42,0xAA,0xC2,Write,ACK
0.230381500000000,42,0xAA,0x01,Write,ACK
0.230404000000000,42,0xAA,0x00,Write,ACK
0.230426500000000,42,0xAA,0x10,Write,ACK
0.230449000000000,42,0xAA,0x00,Write,ACK
0.230471500000000,42,0xAA,0x11,Write,ACK
0.230494000000000,42,0xAA,0x22,Write,ACK
0.230516500000000,42,0xAA,0x33,Write,ACK
0.230539000000000,42,0xAA,0x44,Write,ACK
0.230561500000000,42,0xAA,0x55,Write,ACK
0.230584000000000,42,0xAA,0x66,Write,ACK
0.230606500000000,42,0xAA,0x77,Write,ACK
0.230629000000000,42,0xAA,0x88,Write,ACK
0.230651500000000,42,0xAA,0x99,Write,ACK
0.230674000000000,42,0xAA,0xAA,Write,ACK
0.230696500000000,42,0xAA,0xBB,Write,ACK
0.230719000000000,42,0xAA,0xCC,Write,ACK
0.230741500000000,42,0xAA,0xDD,Write,ACK
0.230764000000000,42,0xAA,0xEE,Write,ACK
0.230786500000000,42,0xAA,0xFF,Write,ACK
0.230809000000000,42,0xAA,0xFF,Write,ACK
0.239204500000000,43,0xAB,0x00,Read,ACK
0.239227000000000,43,0xAB,0x00,Read,ACK
0.239249500000000,43,0xAB,0x00,Read,ACK
0.239272000000000,43,0xAB,0x12,Read,NAK
0.240445000000000,44,0xAB,0x8E,Read,ACK
0.240467500000000,44,0xAB,0xA2,Read,ACK
0.240490000000000,44,0xAB,0xB7,Read,ACK
0.240512500000000,44,0xAB,0xCA,Read,ACK
0.240535000000000,44,0xAB,0x51,Read,ACK
0.240557500000000,44,0xAB,0x67,Read,ACK
0.240580000000000,44,0xAB,0x45,Read,ACK
0.240602500000000,44,0xAB,0xBF,Read,ACK
0.240625000000000,44,0xAB,0xEA,Read,ACK
0.240647500000000,44,0xAB,0xFC,Read,ACK
0.240670000000000,44,0xAB,0x49,Read,ACK
0.240692500000000,44,0xAB,0x90,Read,ACK
0.240715000000000,44,0xAB,0x4B,Read,ACK
0.240737500000000,44,0xAB,0x49,Read,ACK
0.240760000000000,44,0xAB,0x60,Read,ACK
0.240782500000000,44,0xAB,0x89,Read,ACK
0.240805000000000,44,0xAB,0x90,Read,ACK
0.240827500000000,44,0xAB,0x00,Read,NAK
0.248330000000000,45,0xAA,0x00,Write,ACK
0.248352500000000,45,0xAA,0xC3,Write,ACK
0.248375000000000,45,0xAA,0x01,Write,ACK
0.248397500000000,45,0xAA,0x00,Write,ACK
0.248420000000000,45,0xAA,0x10,Write,ACK
0.248442500000000,45,0xAA,0x8E,Write,ACK
0.248465000000000,45,0xAA,0xA2,Write,ACK
0.248487500000000,45,0xAA,0xB7,Write,ACK
0.248510000000000,45,0xAA,0xCA,Write,ACK
0.248532500000000,45,0xAA,0x51,Write,ACK
0.248555000000000,45,0xAA,0x67,Write,ACK
0.248577500000000,45,0xAA,0x45,Write,ACK
0.248600000000000,45,0xAA,0xBF,Write,ACK
0.248622500000000,45,0xAA,0xEA,Write,ACK
0.248645000000000,45,0xAA,0xFC,Write,ACK
0.248667500000000,45,0xAA,0x49,Write,ACK
0.248690000000000,45,0xAA,0x90,Write,ACK
0.248712500000000,45,0xAA,0x4B,Write,ACK
0.248735000000000,45,0xAA,0x49,Write,ACK
0.248757500000000,45,0xAA,0x60,Write,ACK
0.248780000000000,45,0xAA,0x89,Write,ACK
0.248802500000000,45,0xAA,0xFF,Write,ACK
0.257198000000000,46,0xAB,0x00,Read,ACK
0.257220500000000,46,0xAB,0x00,Read,ACK
0.257243000000000,46,0xAB,0x00,Read,ACK
0.257265500000000,46,0xAB,0x12,Read,NAK
0.258438500000000,47,0xAB,0x00,Read,ACK
0.258461000000000,47,0xAB,0x11,Read,ACK
0.258483500000000,47,0xAB,0x22,Read,ACK
0.258506000000000,47,0xAB,0x33,Read,ACK
0.258528500000000,47,0xAB,0x44,Read,ACK
0.258551000000000,47,0xAB,0x55,Read,ACK
0.258573500000000,47,0xAB,0x66,Read,ACK
0.258596000000000,47,0xAB,0x77,Read,ACK
0.258618500000000,47,0xAB,0x88,Read,ACK
0.258641000000000,47,0xAB,0x99,Read,ACK
0.258663500000000,47,0xAB,0xAA,Read,ACK
0.258686000000000,47,0xAB,0xBB,Read,ACK
0.258708500000000,47,0xAB,0xCC,Read,ACK
0.258731000000000,47,0xAB,0xDD,Read,ACK
0.258753500000000,47,0xAB,0xEE,Read,ACK
0.258776000000000,47,0xAB,0xFF,Read,ACK
0.258798500000000,47,0xAB,0x90,Read,ACK
0.258821000000000,47,0xAB,0x00,Read,NAK
0.266341500000000,48,0xAA,0x00,Write,ACK
0.266364000000000,48,0xAA,0xC1,Write,ACK
0.266386500000000,48,0xAA,0x01,Write,ACK
0.266409000000000,48,0xAA,0x01,Write,ACK
0.266431500000000,48,0xAA,0x10,Write,ACK
0.266454000000000,48,0xAA,0x69,Write,ACK
0.266476500000000,48,0xAA,0xC4,Write,ACK
0.266499000000000,48,0xAA,0xE0,Write,ACK
0.266521500000000,48,0xAA,0xD8,Write,ACK
0.266544000000000,48,0xAA,0x6A,Write,ACK
0.266566500000000,48,0xAA,0x7B,Write,ACK
0.266589000000000,48,0xAA,0x04,Write,ACK
0.266611500000000,48,0xAA,0x30,Write,ACK
0.266634000000000,48,0xAA,0xD8,Write,ACK
0.266656500000000,48,0xAA,0xCD,Write,ACK
0.266679000000000,48,0xAA,0xB7,Write,ACK
0.266701500000000,48,0xAA,0x80,Write,ACK
0.266724000000000,48,0xAA,0x70,Write,ACK
0.266746500000000,48,0xAA,0xB4,Write,ACK
0.266769000000000,48,0xAA,0xC5,Write,ACK
0.266791500000000,48,0xAA,0x5A,Write,ACK
0.274840500000000,49,0xAB,0x00,Read,ACK
0.274863000000000,49,0xAB,0x00,Read,ACK
0.274885500000000,49,0xAB,0x00,Read,ACK
0.274908000000000,49,0xAB,0x02,Read,NAK
0.276080500000000,50,0xAB,0x90,Read,ACK
0.276103000000000,50,0xAB,0x00,Read,NAK
0.277564000000000,51,0xAA,0x00,Write,ACK
0.277586500000000,51,0xAA,0xC2,Write,ACK
0.277609000000000,51,0xAA,0x01,Write,ACK
0.277631500000000,51,0xAA,0x01,Write,ACK
0.277654000000000,51,0xAA,0x10,Write,ACK
0.277676500000000,51,0xAA,0x00,Write,ACK
0.277699000000000,51,0xAA,0x11,Write,ACK
0.277721500000000,51,0xAA,0x22,Write,ACK
0.277744000000000,51,0xAA,0x33,Write,ACK
0.277766500000000,51,0xAA,0x44,Write,ACK
0.277789000000000,51,0xAA,0x55,Write,ACK
0.277811500000000,51,0xAA,0x66,Write,ACK
0.277834000000000,51,0xAA,0x77,Write,ACK
0.277856500000000,51,0xAA,0x88,Write,ACK
0.277879000000000,51,0xAA,0x99,Write,ACK
0.277901500000000,51,0xAA,0xAA,Write,ACK
0.277924000000000,51,0xAA,0xBB,Write,ACK
0.277946500000000,51,0xAA,0xCC,Write,ACK
0.277969000000000,51,0xAA,0xDD,Write,ACK
0.277991500000000,51,0xAA,0xEE,Write,ACK
0.278014000000000,51,0xAA,0xFF,Write,ACK
0.278036500000000,51,0xAA,0xFF,Write,ACK
0.286431500000000,52,0xAB,0x00,Read,ACK
0.286454000000000,52,0xAB,0x00,Read,ACK
0.286476500000000,52,0xAB,0x00,Read,ACK
0.286499000000000,52,0xAB,0x12,Read,NAK
0.287672000000000,53,0xAB,0x36,Read,ACK
0.287694500000000,53,0xAB,0x74,Read,ACK
0.287717000000000,53,0xAB,0x69,Read,ACK
0.287739500000000,53,0xAB,0x6D,Read,ACK
0.287762000000000,53,0xAB,0x1A,Read,ACK
0.287784500000000,53,0xAB,0x47,Read,ACK
0.287807000000000,53,0xAB,0x1A,Read,ACK
0.287829500000000,53,0xAB,0x53,Read,ACK
0.287852000000000,53,0xAB,0xAF,Read,ACK
0.287874500000000,53,0xAB,0xEB,Read,ACK
0.287897000000000,53,0xAB,0x8F,Read,ACK
0.287919500000000,53,0xAB,0xD2,Read,ACK
0.287942000000000,53,0xAB,0x17,Read,ACK
0.287964500000000,53,0xAB,0xB6,Read,ACK
0.287987000000000,53,0xAB,0x75,Read,ACK
0.288009500000000,53,0xAB,0xD4,Read,ACK
0.288032000000000,53,0xAB,0x90,Read,ACK
0.288054500000000,53,0xAB,0x00,Read,NAK
0.295557500000000,54,0xAA,0x00,Write,ACK
0.295580000000000,54,0xAA,0xC3,Write,ACK
0.295602500000000,54,0xAA,0x01,Write,ACK
0.295625000000000,54,0xAA,0x01,Write,ACK
0.295647500000000,54,0xAA,0x10,Write,ACK
0.295670000000000,54,0xAA,0x36,Write,ACK
0.295692500000000,54,0xAA,0x74,Write,ACK
0.295715000000000,54,0xAA,0x69,Write,ACK
0.295737500000000,54,0xAA,0x6D,Write,ACK
0.295760000000000,54,0xAA,0x1A,Write,ACK
0.295782500000000,54,0xAA,0x47,Write,ACK
0.295805000000000,54,0xAA,0x1A,Write,ACK
0.295827500000000,54,0xAA,0x53,Write,ACK
0.295850000000000,54,0xAA,0xAF,Write,ACK
0.295872500000000,54,0xAA,0xEB,Write,ACK
0.295895000000000,54,0xAA,0x8F,Write,ACK
0.295917500000000,54,0xAA,0xD2,Write,ACK
0.295940000000000,54,0xAA,0x17,Write,ACK
0.295962500000000,54,0xAA,0xB6,Write,ACK
0.295985000000000,54,0xAA,0x75,Write,ACK
0.296007500000000,54,0xAA,0xD4,Write,ACK
0.296030000000000,54,0xAA,0xFF,Write,ACK
0.304425500000000,55,0xAB,0x00,Read,ACK
0.304448000000000,55,0xAB,0x00,Read,ACK
0.304470500000000,55,0xAB,0x00,Read,ACK
0.304493000000000,55,0xAB,0x12,Read,NAK
0.305666000000000,56,0xAB,0x00,Read,ACK
0.305688500000000,56,0xAB,0x11,Read,ACK
0.305711000000000,56,0xAB,0x22,Read,ACK
0.305733500000000,56,0xAB,0x33,Read,ACK
0.305756000000000,56,0xAB,0x44,Read,ACK
0.305778500000000,56,0xAB,0x55,Read,ACK
0.305801000000000,56,0xAB,0x66,Read,ACK
0.305823500000000,56,0xAB,0x77,Read,ACK
0.305846000000000,56,0xAB,0x88,Read,ACK
0.305868500000000,56,0xAB,0x99,Read,ACK
0.305891000000000,56,0xAB,0xAA,Read,ACK
0.305913500000000,56,0xAB,0xBB,Read,ACK
0.305936000000000,56,0xAB,0xCC,Read,ACK
0.305958500000000,56,0xAB,0xDD,Read,ACK
0.305981000000000,56,0xAB,0xEE,Read,ACK
0.306003500000000,56,0xAB,0xFF,Read,ACK
0.306026000000000,56,0xAB,0x90,Read,ACK
0.306048500000000,56,0xAB,0x00,Read,NAK
0.316317500000000,57,0xAA,0x00,Write,ACK
0.316340000000000,57,0xAA,0xC1,Write,ACK
0.316362500000000,57,0xAA,0x01,Write,ACK
0.316385000000000,57,0xAA,0x00,Write,ACK
0.316407500000000,57,0xAA,0x08,Write,ACK
0.316430000000000,57,0xAA,0x00,Write,ACK
0.316452500000000,57,0xAA,0x01,Write,ACK
0.316475000000000,57,0xAA,0x02,Write,ACK
0.316497500000000,57,0xAA,0x03,Write,ACK
0.316520000000000,57,0xAA,0x04,Write,ACK
0.316542500000000,57,0xAA,0x05,Write,ACK
0.316565000000000,57,0xAA,0x06,Write,ACK
0.316587500000000,57,0xAA,0x07,Write,ACK
0.321891000000000,58,0xAB,0x00,Read,ACK
0.321913500000000,58,0xAB,0x00,Read,ACK
0.321936000000000,58,0xAB,0x00,Read,ACK
0.321958500000000,58,0xAB,0x02,Read,NAK
0.323131500000000,59,0xAB,0x90,Read,ACK
0.323154000000000,59,0xAB,0x00,Read,NAK
0.324614500000000,60,0xAA,0x00,Write,ACK
0.324637000000000,60,0xAA,0xC2,Write,ACK
0.324659500000000,60,0xAA,0x02,Write,ACK
0.324682000000000,60,0xAA,0x00,Write,ACK
0.324704500000000,60,0xAA,0x1A,Write,ACK
0.324727000000000,60,0xAA,0x00,Write,ACK
0.324749500000000,60,0xAA,0x11,Write,ACK
0.324772000000000,60,0xAA,0x22,Write,ACK
0.324794500000000,60,0xAA,0x33,Write,ACK
0.324817000000000,60,0xAA,0x44,Write,ACK
0.324839500000000,60,0xAA,0x55,Write,ACK
0.324862000000000,60,0xAA,0x66,Write,ACK
0.324884500000000,60,0xAA,0x77,Write,ACK
0.324907000000000,60,0xAA,0x88,Write,ACK
0.324929500000000,60,0xAA,0x99,Write,ACK
0.324952000000000,60,0xAA,0xAA,Write,ACK
0.324974500000000,60,0xAA,0xBB,Write,ACK
0.324997500000000,60,0xAA,0xCC,Write,ACK
0.325020000000000,60,0xAA,0xDD,Write,ACK
0.325042500000000,60,0xAA,0xEE,Write,ACK
0.325065000000000,60,0xAA,0xFF,Write,ACK
0.325087500000000,60,0xAA,0xAA,Write,ACK
0.325110000000000,60,0xAA,0xBB,Write,ACK
0.325132500000000,60,0xAA,0xCC,Write,ACK
0.325155000000000,60,0xAA,0xDD,Write,ACK
0.325177500000000,60,0xAA,0xEE,Write,ACK
0.325200000000000,60,0xAA,0xFF,Write,ACK
0.325222500000000,60,0xAA,0x11,Write,ACK
0.325245000000000,60,0xAA,0x22,Write,ACK
0.325267500000000,60,0xAA,0x00,Write,ACK
0.325290000000000,60,0xAA,0x00,Write,ACK
0.325312500000000,60,0xAA,0xFF,Write,ACK
0.337137000000000,61,0xAB,0x00,Read,ACK
0.337159500000000,61,0xAB,0x00,Read,ACK
0.337182000000000,61,0xAB,0x00,Read,ACK
0.337204500000000,61,0xAB,0x22,Read,NAK
0.338377500000000,62,0xAB,0x3E,Read,ACK
0.338400000000000,62,0xAB,0xF0,Read,ACK
0.338422500000000,62,0xAB,0xA8,Read,ACK
0.338445000000000,62,0xAB,0x91,Read,ACK
0.338467500000000,62,0xAB,0xCF,Read,ACK
0.338490000000000,62,0xAB,0x8E,Read,ACK
0.338512500000000,62,0xAB,0xD9,Read,ACK
0.338535000000000,62,0xAB,0x90,Read,ACK
0.338557500000000,62,0xAB,0x86,Read,ACK
0.338580000000000,62,0xAB,0x52,Read,ACK
0.338602500000000,62,0xAB,0xCF,Read,ACK
0.338625000000000,62,0xAB,0x6B,Read,ACK
0.338647500000000,62,0xAB,0x1C,Read,ACK
0.338670000000000,62,0xAB,0x7B,Read,ACK
0.338692500000000,62,0xAB,0xAB,Read,ACK
0.338715000000000,62,0xAB,0xB4,Read,ACK
0.338737500000000,62,0xAB,0x81,Read,ACK
0.338760000000000,62,0xAB,0x8D,Read,ACK
0.338782500000000,62,0xAB,0xC0,Read,ACK
0.338805000000000,62,0xAB,0x13,Read,ACK
0.338827500000000,62,0xAB,0xEA,Read,ACK
0.338850000000000,62,0xAB,0x27,Read,ACK
0.338872500000000,62,0xAB,0x9C,Read,ACK
0.338895000000000,62,0xAB,0xA7,Read,ACK
0.338917500000000,62,0xAB,0x53,Read,ACK
0.338940000000000,62,0xAB,0xC2,Read,ACK
0.338962500000000,62,0xAB,0xB2,Read,ACK
0.338985000000000,62,0xAB,0x41,Read,ACK
0.339007500000000,62,0xAB,0xD0,Read,ACK
0.339030000000000,62,0xAB,0x0A,Read,ACK
0.339052500000000,62,0xAB,0xF9,Read,ACK
0.339075000000000,62,0xAB,0xF6,Read,ACK
0.339097500000000,62,0xAB,0x90,Read,ACK
0.339120000000000,62,0xAB,0x00,Read,NAK
0.352131000000000,63,0xAA,0x00,Write,ACK
0.352153500000000,63,0xAA,0xC3,Write,ACK
0.352176000000000,63,0xAA,0x02,Write,ACK
0.352198500000000,63,0xAA,0x00,Write,ACK
0.352221000000000,63,0xAA,0x20,Write,ACK
0.352243500000000,63,0xAA,0x3E,Write,ACK
0.352266000000000,63,0xAA,0xF0,Write,ACK
0.352288500000000,63,0xAA,0xA8,Write,ACK
0.352311000000000,63,0xAA,0x91,Write,ACK
0.352333500000000,63,0xAA,0xCF,Write,ACK
0.352356000000000,63,0xAA,0x8E,Write,ACK
0.352378500000000,63,0xAA,0xD9,Write,ACK
0.352401000000000,63,0xAA,0x90,Write,ACK
0.352423500000000,63,0xAA,0x86,Write,ACK
0.352446000000000,63,0xAA,0x52,Write,ACK
0.352468500000000,63,0xAA,0xCF,Write,ACK
0.352491000000000,63,0xAA,0x6B,Write,ACK
0.352513500000000,63,0xAA,0x1C,Write,ACK
0.352536000000000,63,0xAA,0x7B,Write,ACK
0.352558500000000,63,0xAA,0xAB,Write,ACK
0.352581000000000,63,0xAA,0xB4,Write,ACK
0.352603500000000,63,0xAA,0x81,Write,ACK
0.352626000000000,63,0xAA,0x8D,Write,ACK
0.352648500000000,63,0xAA,0xC0,Write,ACK
0.352671000000000,63,0xAA,0x13,Write,ACK
0.352693500000000,63,0xAA,0xEA,Write,ACK
0.352716000000000,63,0xAA,0x27,Write,ACK
0.352738500000000,63,0xAA,0x9C,Write,ACK
0.352761000000000,63,0xAA,0xA7,Write,ACK
0.352783500000000,63,0xAA,0x53,Write,ACK
0.352806000000000,63,0xAA,0xC2,Write,ACK
0.352828500000000,63,0xAA,0xB2,Write,ACK
0.352851000000000,63,0xAA,0x41,Write,ACK
0.352873500000000,63,0xAA,0xD0,Write,ACK
0.352896000000000,63,0xAA,0x0A,Write,ACK
0.352918500000000,63,0xAA,0xF9,Write,ACK
0.352941000000000,63,0xAA,0xF6,Write,ACK
0.352963500000000,63,0xAA,0xFF,Write,ACK
0.367384000000000,64,0xAB,0x00,Read,ACK
0.367406500000000,64,0xAB,0x00,Read,ACK
0.367429000000000,64,0xAB,0x00,Read,ACK
0.367451500000000,64,0xAB,0x1C,Read,NAK
0.368624500000000,65,0xAB,0x00,Read,ACK
0.368647000000000,65,0xAB,0x11,Read,ACK
0.368669500000000,65,0xAB,0x22,Read,ACK
0.368692000000000,65,0xAB,0x33,Read,ACK
0.368714500000000,65,0xAB,0x44,Read,ACK
0.368737000000000,65,0xAB,0x55,Read,ACK
0.368759500000000,65,0xAB,0x66,Read,ACK
0.368782000000000,65,0xAB,0x77,Read,ACK
0.368804500000000,65,0xAB,0x88,Read,ACK
0.368827000000000,65,0xAB,0x99,Read,ACK
0.368849500000000,65,0xAB,0xAA,Read,ACK
0.368872000000000,65,0xAB,0xBB,Read,ACK
0.368894500000000,65,0xAB,0xCC,Read,ACK
0.368917000000000,65,0xAB,0xDD,Read,ACK
0.368939500000000,65,0xAB,0xEE,Read,ACK
0.368962000000000,65,0xAB,0xFF,Read,ACK
0.368984500000000,65,0xAB,0xAA,Read,ACK
0.369007000000000,65,0xAB,0xBB,Read,ACK
0.369029500000000,65,0xAB,0xCC,Read,ACK
0.369052000000000,65,0xAB,0xDD,Read,ACK
0.369074500000000,65,0xAB,0xEE,Read,ACK
0.369097000000000,65,0xAB,0xFF,Read,ACK
0.369119500000000,65,0xAB,0x11,Read,ACK
0.369142000000000,65,0xAB,0x22,Read,ACK
0.369164500000000,65,0xAB,0x00,Read,ACK
0.369187000000000,65,0xAB,0x00,Read,ACK
0.369209500000000,65,0xAB,0x90,Read,ACK
0.369232000000000,65,0xAB,0x00,Read,NAK
0.382939000000000,66,0xAA,0x00,Write,ACK
0.382961500000000,66,0xAA,0x2A,Write,ACK
0.382984000000000,66,0xAA,0x00,Write,ACK
0.383006500000000,66,0xAA,0x01,Write,ACK
0.383029000000000,66,0xAA,0x03,Write,ACK
0.383051500000000,66,0xAA,0x61,Write,ACK
0.383074000000000,66,0xAA,0x62,Write,ACK
0.383096500000000,66,0xAA,0x63,Write,ACK
0.383119000000000,66,0xAA,0x14,Write,ACK
0.387054500000000,67,0xAB,0x00,Read,ACK
0.387077000000000,67,0xAB,0x00,Read,ACK
0.387099500000000,67,0xAB,0x00,Read,ACK
0.387122000000000,67,0xAB,0x16,Read,NAK
0.388295000000000,68,0xAB,0xA9,Read,ACK
0.388317500000000,68,0xAB,0x99,Read,ACK
0.388340000000000,68,0xAB,0x3E,Read,ACK
0.388362500000000,68,0xAB,0x36,Read,ACK
0.388385000000000,68,0xAB,0x47,Read,ACK
0.388407500000000,68,0xAB,0x06,Read,ACK
0.388430000000000,68,0xAB,0x81,Read,ACK
0.388452500000000,68,0xAB,0x6A,Read,ACK
0.388475000000000,68,0xAB,0xBA,Read,ACK
0.388497500000000,68,0xAB,0x3E,Read,ACK
0.388520000000000,68,0xAB,0x25,Read,ACK
0.388542500000000,68,0xAB,0x71,Read,ACK
0.388565000000000,68,0xAB,0x78,Read,ACK
0.388587500000000,68,0xAB,0x50,Read,ACK
0.388610000000000,68,0xAB,0xC2,Read,ACK
0.388632500000000,68,0xAB,0x6C,Read,ACK
0.388655000000000,68,0xAB,0x9C,Read,ACK
0.388677500000000,68,0xAB,0xD0,Read,ACK
0.388700000000000,68,0xAB,0xD8,Read,ACK
0.388722500000000,68,0xAB,0x9D,Read,ACK
0.388745000000000,68,0xAB,0x90,Read,ACK
0.388767500000000,68,0xAB,0x00,Read,NAK
0.397812000000000,69,0xAA,0x00,Write,ACK
0.397834500000000,69,0xAA,0x2A,Write,ACK
0.397857000000000,69,0xAA,0x00,Write,ACK
0.397879500000000,69,0xAA,0x01,Write,ACK
0.397902000000000,69,0xAA,0x38,Write,ACK
0.397924500000000,69,0xAA,0x61,Write,ACK
0.397947000000000,69,0xAA,0x62,Write,ACK
0.397969500000000,69,0xAA,0x63,Write,ACK
0.397992000000000,69,0xAA,0x64,Write,ACK
0.398014500000000,69,0xAA,0x62,Write,ACK
0.398037000000000,69,0xAA,0x63,Write,ACK
0.398059500000000,69,0xAA,0x64,Write,ACK
0.398082000000000,69,0xAA,0x65,Write,ACK
0.398104500000000,69,0xAA,0x63,Write,ACK
0.398127000000000,69,0xAA,0x64,Write,ACK
0.398149500000000,69,0xAA,0x65,Write,ACK
0.398172000000000,69,0xAA,0x66,Write,ACK
0.398194500000000,69,0xAA,0x64,Write,ACK
0.398217000000000,69,0xAA,0x65,Write,ACK
0.398239500000000,69,0xAA,0x66,Write,ACK
0.398262000000000,69,0xAA,0x67,Write,ACK
0.398284500000000,69,0xAA,0x65,Write,ACK
0.398307000000000,69,0xAA,0x66,Write,ACK
0.398329500000000,69,0xAA,0x67,Write,ACK
0.398352000000000,69,0xAA,0x68,Write,ACK
0.398374500000000,69,0xAA,0x66,Write,ACK
0.398397000000000,69,0xAA,0x67,Write,ACK
0.398419500000000,69,0xAA,0x68,Write,ACK
0.398442000000000,69,0xAA,0x69,Write,ACK
0.398464500000000,69,0xAA,0x67,Write,ACK
0.398487000000000,69,0xAA,0x68,Write,ACK
0.398509500000000,69,0xAA,0x69,Write,ACK
0.398532000000000,69,0xAA,0x6A,Write,ACK
0.398554500000000,69,0xAA,0x68,Write,ACK
0.398577000000000,69,0xAA,0x69,Write,ACK
0.398599500000000,69,0xAA,0x6A,Write,ACK
0.398622000000000,69,0xAA,0x6B,Write,ACK
0.398644500000000,69,0xAA,0x69,Write,ACK
0.398667000000000,69,0xAA,0x6A,Write,ACK
0.398689500000000,69,0xAA,0x6B,Write,ACK
0.398712000000000,69,0xAA,0x6C,Write,ACK
0.398734500000000,69,0xAA,0x6A,Write,ACK
0.398757000000000,69,0xAA,0x6B,Write,ACK
0.398779500000000,69,0xAA,0x6C,Write,ACK
0.398802000000000,69,0xAA,0x6D,Write,ACK
0.398824500000000,69,0xAA,0x6B,Write,ACK
0.398847000000000,69,0xAA,0x6C,Write,ACK
0.398869500000000,69,0xAA,0x6D,Write,ACK
0.398892000000000,69,0xAA,0x6E,Write,ACK
0.398914500000000,69,0xAA,0x6C,Write,ACK
0.398937000000000,69,0xAA,0x6D,Write,ACK
0.398959500000000,69,0xAA,0x6E,Write,ACK
0.398982000000000,69,0xAA,0x6F,Write,ACK
0.399004500000000,69,0xAA,0x6D,Write,ACK
0.399027000000000,69,0xAA,0x6E,Write,ACK
0.399049500000000,69,0xAA,0x6F,Write,ACK
0.399072000000000,69,0xAA,0x70,Write,ACK
0.399094500000000,69,0xAA,0x6E,Write,ACK
0.399117000000000,69,0xAA,0x6F,Write,ACK
0.399140000000000,69,0xAA,0x70,Write,ACK
0.399162500000000,69,0xAA,0x71,Write,ACK
0.399185000000000,69,0xAA,0x14,Write,ACK
0.421841000000000,70,0xAB,0x00,Read,ACK
0.421863500000000,70,0xAB,0x00,Read,ACK
0.421886000000000,70,0xAB,0x00,Read,ACK
0.421908500000000,70,0xAB,0x16,Read,NAK
0.423081500000000,71,0xAB,0x84,Read,ACK
0.423104000000000,71,0xAB,0x98,Read,ACK
0.423126500000000,71,0xAB,0x3E,Read,ACK
0.423149000000000,71,0xAB,0x44,Read,ACK
0.423171500000000,71,0xAB,0x1C,Read,ACK
0.423194000000000,71,0xAB,0x3B,Read,ACK
0.423216500000000,71,0xAB,0xD2,Read,ACK
0.423239000000000,71,0xAB,0x6E,Read,ACK
0.423261500000000,71,0xAB,0xBA,Read,ACK
0.423284000000000,71,0xAB,0xAE,Read,ACK
0.423306500000000,71,0xAB,0x4A,Read,ACK
0.423329000000000,71,0xAB,0xA1,Read,ACK
0.423351500000000,71,0xAB,0xF9,Read,ACK
0.423374000000000,71,0xAB,0x51,Read,ACK
0.423396500000000,71,0xAB,0x29,Read,ACK
0.423419000000000,71,0xAB,0xE5,Read,ACK
0.423441500000000,71,0xAB,0xE5,Read,ACK
0.423464000000000,71,0xAB,0x46,Read,ACK
0.423486500000000,71,0xAB,0x70,Read,ACK
0.423509000000000,71,0xAB,0xF1,Read,ACK
0.423531500000000,71,0xAB,0x90,Read,ACK
0.423554000000000,71,0xAB,0x00,Read,NAK
0.432668000000000,72,0xAA,0x00,Write,ACK
0.432690500000000,72,0xAA,0x2A,Write,ACK
0.432713000000000,72,0xAA,0x00,Write,ACK
0.432735500000000,72,0xAA,0x02,Write,ACK
0.432758000000000,72,0xAA,0x03,Write,ACK
0.432780500000000,72,0xAA,0x61,Write,ACK
0.432803000000000,72,0xAA,0x62,Write,ACK
0.432825500000000,72,0xAA,0x63,Write,ACK
0.432848000000000,72,0xAA,0x1C,Write,ACK
0.436783000000000,73,0xAB,0x00,Read,ACK
0.436805500000000,73,0xAB,0x00,Read,ACK
0.436828500000000,73,0xAB,0x00,Read,ACK
0.436851000000000,73,0xAB,0x1E,Read,NAK
0.438023500000000,74,0xAB,0x23,Read,ACK
0.438046000000000,74,0xAB,0x09,Read,ACK
0.438068500000000,74,0xAB,0x7D,Read,ACK
0.438091000000000,74,0xAB,0x22,Read,ACK
0.438113500000000,74,0xAB,0x34,Read,ACK
0.438136000000000,74,0xAB,0x05,Read,ACK
0.438158500000000,74,0xAB,0xD8,Read,ACK
0.438181000000000,74,0xAB,0x22,Read,ACK
0.438203500000000,74,0xAB,0x86,Read,ACK
0.438226000000000,74,0xAB,0x42,Read,ACK
0.438248500000000,74,0xAB,0xA4,Read,ACK
0.438271000000000,74,0xAB,0x77,Read,ACK
0.438293500000000,74,0xAB,0xBD,Read,ACK
0.438316000000000,74,0xAB,0xA2,Read,ACK
0.438338500000000,74,0xAB,0x55,Read,ACK
0.438361000000000,74,0xAB,0xB3,Read,ACK
0.438383500000000,74,0xAB,0x2A,Read,ACK
0.438406000000000,74,0xAB,0xAD,Read,ACK
0.438428500000000,74,0xAB,0xBC,Read,ACK
0.438451000000000,74,0xAB,0xE4,Read,ACK
0.438473500000000,74,0xAB,0xBD,Read,ACK
0.438496000000000,74,0xAB,0xA0,Read,ACK
0.438518500000000,74,0xAB,0xB3,Read,ACK
0.438541500000000,74,0xAB,0xF7,Read,ACK
0.438564000000000,74,0xAB,0xE3,Read,ACK
0.438586500000000,74,0xAB,0x6C,Read,ACK
0.438609000000000,74,0xAB,0x9D,Read,ACK
0.438631500000000,74,0xAB,0xA7,Read,ACK
0.438654000000000,74,0xAB,0x90,Read,ACK
0.438676500000000,74,0xAB,0x00,Read,NAK
0.450492000000000,75,0xAA,0x00,Write,ACK
0.450514500000000,75,0xAA,0x2A,Write,ACK
0.450537000000000,75,0xAA,0x00,Write,ACK
0.450559500000000,75,0xAA,0x02,Write,ACK
0.450582000000000,75,0xAA,0x38,Write,ACK
0.450604500000000,75,0xAA,0x61,Write,ACK
0.450627000000000,75,0xAA,0x62,Write,ACK
0.450649500000000,75,0xAA,0x63,Write,ACK
0.450672000000000,75,0xAA,0x64,Write,ACK
0.450694500000000,75,0xAA,0x62,Write,ACK
0.450717000000000,75,0xAA,0x63,Write,ACK
0.450739500000000,75,0xAA,0x64,Write,ACK
0.450762000000000,75,0xAA,0x65,Write,ACK
0.450784500000000,75,0xAA,0x63,Write,ACK
0.450807000000000,75,0xAA,0x64,Write,ACK
0.450829500000000,75,0xAA,0x65,Write,ACK
0.450852000000000,75,0xAA,0x66,Write,ACK
0.450874500000000,75,0xAA,0x64,Write,ACK
0.450897000000000,75,0xAA,0x65,Write,ACK
0.450919500000000,75,0xAA,0x66,Write,ACK
0.450942000000000,75,0xAA,0x67,Write,ACK
0.450964500000000,75,0xAA,0x65,Write,ACK
0.450987000000000,75,0xAA,0x66,Write,ACK
0.451009500000000,75,0xAA,0x67,Write,ACK
0.451032000000000,75,0xAA,0x68,Write,ACK
0.451054500000000,75,0xAA,0x66,Write,ACK
0.451077000000000,75,0xAA,0x67,Write,ACK
0.451099500000000,75,0xAA,0x68,Write,ACK
0.451122000000000,75,0xAA,0x69,Write,ACK
0.451144500000000,75,0xAA,0x67,Write,ACK
0.451167000000000,75,0xAA,0x68,Write,ACK
0.451189500000000,75,0xAA,0x69,Write,ACK
0.451212000000000,75,0xAA,0x6A,Write,ACK
0.451234500000000,75,0xAA,0x68,Write,ACK
0.451257000000000,75,0xAA,0x69,Write,ACK
0.451279500000000,75,0xAA,0x6A,Write,ACK
0.451302000000000,75,0xAA,0x6B,Write,ACK
0.451324500000000,75,0xAA,0x69,Write,ACK
0.451347000000000,75,0xAA,0x6A,Write,ACK
0.451369500000000,75,0xAA,0x6B,Write,ACK
0.451392000000000,75,0xAA,0x6C,Write,ACK
0.451414500000000,75,0xAA,0x6A,Write,ACK
0.451437000000000,75,0xAA,0x6B,Write,ACK
0.451459500000000,75,0xAA,0x6C,Write,ACK
0.451482000000000,75,0xAA,0x6D,Write,ACK
0.451504500000000,75,0xAA,0x6B,Write,ACK
0.451527000000000,75,0xAA,0x6C,Write,ACK
0.451549500000000,75,0xAA,0x6D,Write,ACK
0.451572000000000,75,0xAA,0x6E,Write,ACK
0.451594500000000,75,0xAA,0x6C,Write,ACK
0.451617000000000,75,0xAA,0x6D,Write,ACK
0.451639500000000,75,0xAA,0x6E,Write,ACK
0.451662000000000,75,0xAA,0x6F,Write,ACK
0.451684500000000,75,0xAA,0x6D,Write,ACK
0.451707000000000,75,0xAA,0x6E,Write,ACK
0.451729500000000,75,0xAA,0x6F,Write,ACK
0.451752000000000,75,0xAA,0x70,Write,ACK
0.451774500000000,75,0xAA,0x6E,Write,ACK
0.451797000000000,75,0xAA,0x6F,Write,ACK
0.451819500000000,75,0xAA,0x70,Write,ACK
0.451842000000000,75,0xAA,0x71,Write,ACK
0.451864500000000,75,0xAA,0x1C,Write,ACK
0.474521000000000,76,0xAB,0x00,Read,ACK
0.474543500000000,76,0xAB,0x00,Read,ACK
0.474566000000000,76,0xAB,0x00,Read,ACK
0.474588500000000,76,0xAB,0x1E,Read,NAK
0.475761500000000,77,0xAB,0x75,Read,ACK
0.475784000000000,77,0xAB,0x38,Read,ACK
0.475806500000000,77,0xAB,0x8B,Read,ACK
0.475829000000000,77,0xAB,0x16,Read,ACK
0.475851500000000,77,0xAB,0x51,Read,ACK
0.475874000000000,77,0xAB,0x27,Read,ACK
0.475896500000000,77,0xAB,0x76,Read,ACK
0.475919000000000,77,0xAB,0xCC,Read,ACK
0.475941500000000,77,0xAB,0x5D,Read,ACK
0.475964000000000,77,0xAB,0xBA,Read,ACK
0.475986500000000,77,0xAB,0x5D,Read,ACK
0.476009000000000,77,0xAB,0xA1,Read,ACK
0.476031500000000,77,0xAB,0xFD,Read,ACK
0.476054000000000,77,0xAB,0x89,Read,ACK
0.476076500000000,77,0xAB,0x01,Read,ACK
0.476099000000000,77,0xAB,0x50,Read,ACK
0.476121500000000,77,0xAB,0xB0,Read,ACK
0.476144000000000,77,0xAB,0xC6,Read,ACK
0.476166500000000,77,0xAB,0x45,Read,ACK
0.476189000000000,77,0xAB,0x5C,Read,ACK
0.476211500000000,77,0xAB,0xB4,Read,ACK
0.476234000000000,77,0xAB,0xF5,Read,ACK
0.476256500000000,77,0xAB,0x8B,Read,ACK
0.476279000000000,77,0xAB,0x19,Read,ACK
0.476301500000000,77,0xAB,0x52,Read,ACK
0.476324000000000,77,0xAB,0x52,Read,ACK
0.476346500000000,77,0xAB,0x25,Read,ACK
0.476369000000000,77,0xAB,0x25,Read,ACK
0.476391500000000,77,0xAB,0x90,Read,ACK
0.476414000000000,77,0xAB,0x00,Read,NAK
0.488290500000000,78,0xAA,0x00,Write,ACK
0.488313000000000,78,0xAA,0x2A,Write,ACK
0.488335500000000,78,0xAA,0x00,Write,ACK
0.488358000000000,78,0xAA,0x03,Write,ACK
0.488380500000000,78,0xAA,0x03,Write,ACK
0.488403000000000,78,0xAA,0x61,Write,ACK
0.488425500000000,78,0xAA,0x62,Write,ACK
0.488448000000000,78,0xAA,0x63,Write,ACK
0.488470500000000,78,0xAA,0x20,Write,ACK
0.492406000000000,79,0xAB,0x00,Read,ACK
0.492428500000000,79,0xAB,0x00,Read,ACK
0.492451000000000,79,0xAB,0x00,Read,ACK
0.492473500000000,79,0xAB,0x22,Read,NAK
0.493646500000000,80,0xAB,0xBA,Read,ACK
0.493669000000000,80,0xAB,0x78,Read,ACK
0.493691500000000,80,0xAB,0x16,Read,ACK
0.493714000000000,80,0xAB,0xBF,Read,ACK
0.493736500000000,80,0xAB,0x8F,Read,ACK
0.493759000000000,80,0xAB,0x01,Read,ACK
0.493781500000000,80,0xAB,0xCF,Read,ACK
0.493804000000000,80,0xAB,0xEA,Read,ACK
0.493826500000000,80,0xAB,0x41,Read,ACK
0.493849000000000,80,0xAB,0x41,Read,ACK
0.493871500000000,80,0xAB,0x40,Read,ACK
0.493894000000000,80,0xAB,0xDE,Read,ACK
0.493916500000000,80,0xAB,0x5D,Read,ACK
0.493939000000000,80,0xAB,0xAE,Read,ACK
0.493961500000000,80,0xAB,0x22,Read,ACK
0.493984000000000,80,0xAB,0x23,Read,ACK
0.494006500000000,80,0xAB,0xB0,Read,ACK
0.494029000000000,80,0xAB,0x03,Read,ACK
0.494051500000000,80,0xAB,0x61,Read,ACK
0.494074000000000,80,0xAB,0xA3,Read,ACK
0.494096500000000,80,0xAB,0x96,Read,ACK
0.494119000000000,80,0xAB,0x17,Read,ACK
0.494141500000000,80,0xAB,0x7A,Read,ACK
0.494164000000000,80,0xAB,0x9C,Read,ACK
0.494186500000000,80,0xAB,0xB4,Read,ACK
0.494209000000000,80,0xAB,0x10,Read,ACK
0.494231500000000,80,0xAB,0xFF,Read,ACK
0.494254000000000,80,0xAB,0x61,Read,ACK
0.494276500000000,80,0xAB,0xF2,Read,ACK
0.494299000000000,80,0xAB,0x00,Read,ACK
0.494321500000000,80,0xAB,0x15,Read,ACK
0.494344000000000,80,0xAB,0xAD,Read,ACK
0.494366500000000,80,0xAB,0x90,Read,ACK
0.494389000000000,80,0xAB,0x00,Read,NAK
0.507590500000000,81,0xAA,0x00,Write,ACK
0.507613000000000,81,0xAA,0x2A,Write,ACK
0.507635500000000,81,0xAA,0x00,Write,ACK
0.507658000000000,81,0xAA,0x03,Write,ACK
0.507680500000000,81,0xAA,0x38,Write,ACK
0.507703000000000,81,0xAA,0x61,Write,ACK
0.507725500000000,81,0xAA,0x62,Write,ACK
0.507748000000000,81,0xAA,0x63,Write,ACK
0.507770500000000,81,0xAA,0x64,Write,ACK
0.507793000000000,81,0xAA,0x62,Write,ACK
0.507815500000000,81,0xAA,0x63,Write,ACK
0.507838000000000,81,0xAA,0x64,Write,ACK
0.507860500000000,81,0xAA,0x65,Write,ACK
0.507883000000000,81,0xAA,0x63,Write,ACK
0.507905500000000,81,0xAA,0x64,Write,ACK
0.507928000000000,81,0xAA,0x65,Write,ACK
0.507950500000000,81,0xAA,0x66,Write,ACK
0.507973000000000,81,0xAA,0x64,Write,ACK
0.507995500000000,81,0xAA,0x65,Write,ACK
0.508018000000000,81,0xAA,0x66,Write,ACK
0.508040500000000,81,0xAA,0x67,Write,ACK
0.508063000000000,81,0xAA,0x65,Write,ACK
0.508085500000000,81,0xAA,0x66,Write,ACK
0.508108000000000,81,0xAA,0x67,Write,ACK
0.508130500000000,81,0xAA,0x68,Write,ACK
0.508153000000000,81,0xAA,0x66,Write,ACK
0.508175500000000,81,0xAA,0x67,Write,ACK
0.508198000000000,81,0xAA,0x68,Write,ACK
0.508220500000000,81,0xAA,0x69,Write,ACK
0.508243000000000,81,0xAA,0x67,Write,ACK
0.508265500000000,81,0xAA,0x68,Write,ACK
0.508288000000000,81,0xAA,0x69,Write,ACK
0.508310500000000,81,0xAA,0x6A,Write,ACK
0.508333000000000,81,0xAA,0x68,Write,ACK
0.508355500000000,81,0xAA,0x69,Write,ACK
0.508378000000000,81,0xAA,0x6A,Write,ACK
0.508400500000000,81,0xAA,0x6B,Write,ACK
0.508423000000000,81,0xAA,0x69,Write,ACK
0.508446000000000,81,0xAA,0x6A,Write,ACK
0.508468500000000,81,0xAA,0x6B,Write,ACK
0.508491000000000,81,0xAA,0x6C,Write,ACK
0.508513500000000,81,0xAA,0x6A,Write,ACK
0.508536000000000,81,0xAA,0x6B,Write,ACK
0.508558500000000,81,0xAA,0x6C,Write,ACK
0.508581000000000,81,0xAA,0x6D,Write,ACK
0.508603500000000,81,0xAA,0x6B,Write,ACK
0.508626000000000,81,0xAA,0x6C,Write,ACK
0.508648500000000,81,0xAA,0x6D,Write,ACK
0.508671000000000,81,0xAA,0x6E,Write,ACK
0.508693500000000,81,0xAA,0x6C,Write,ACK
0.508716000000000,81,0xAA,0x6D,Write,ACK
0.508738500000000,81,0xAA,0x6E,Write,ACK
0.508761000000000,81,0xAA,0x6F,Write,ACK
0.508783500000000,81,0xAA,0x6D,Write,ACK
0.508806000000000,81,0xAA,0x6E,Write,ACK
0.508828500000000,81,0xAA,0x6F,Write,ACK
0.508851000000000,81,0xAA,0x70,Write,ACK
0.508873500000000,81,0xAA,0x6E,Write,ACK
0.508896000000000,81,0xAA,0x6F,Write,ACK
0.508918500000000,81,0xAA,0x70,Write,ACK
0.508941000000000,81,0xAA,0x71,Write,ACK
0.508963500000000,81,0xAA,0x20,Write,ACK
0.531619500000000,82,0xAB,0x00,Read,ACK
0.531642000000000,82,0xAB,0x00,Read,ACK
0.531664500000000,82,0xAB,0x00,Read,ACK
0.531687000000000,82,0xAB,0x22,Read,NAK
0.532859500000000,83,0xAB,0x24,Read,ACK
0.532882000000000,83,0xAB,0x8D,Read,ACK
0.532904500000000,83,0xAB,0x6A,Read,ACK
0.532927000000000,83,0xAB,0x61,Read,ACK
0.532949500000000,83,0xAB,0xD2,Read,ACK
0.532972000000000,83,0xAB,0x06,Read,ACK
0.532995000000000,83,0xAB,0x38,Read,ACK
0.533017500000000,83,0xAB,0xB8,Read,ACK
0.533040000000000,83,0xAB,0xE5,Read,ACK
0.533062500000000,83,0xAB,0xC0,Read,ACK
0.533085000000000,83,0xAB,0x26,Read,ACK
0.533107500000000,83,0xAB,0x93,Read,ACK
0.533130000000000,83,0xAB,0x0C,Read,ACK
0.533152500000000,83,0xAB,0x3E,Read,ACK
0.533175000000000,83,0xAB,0x60,Read,ACK
0.533197500000000,83,0xAB,0x39,Read,ACK
0.533220000000000,83,0xAB,0xA3,Read,ACK
0.533242500000000,83,0xAB,0x3C,Read,ACK
0.533265000000000,83,0xAB,0xE4,Read,ACK
0.533287500000000,83,0xAB,0x59,Read,ACK
0.533310000000000,83,0xAB,0x64,Read,ACK
0.533332500000000,83,0xAB,0xFF,Read,ACK
0.533355000000000,83,0xAB,0x21,Read,ACK
0.533377500000000,83,0xAB,0x67,Read,ACK
0.533400000000000,83,0xAB,0xF6,Read,ACK
0.533422500000000,83,0xAB,0xEC,Read,ACK
0.533445000000000,83,0xAB,0xED,Read,ACK
0.533467500000000,83,0xAB,0xD4,Read,ACK
0.533490000000000,83,0xAB,0x19,Read,ACK
0.533512500000000,83,0xAB,0xDB,Read,ACK
0.533535000000000,83,0xAB,0x06,Read,ACK
0.533557500000000,83,0xAB,0xC1,Read,ACK
0.533580000000000,83,0xAB,0x90,Read,ACK
0.533602500000000,83,0xAB,0x00,Read,NAK
0.555574000000000,84,0xAA,0x00,Write,ACK
0.555596500000000,84,0xAA,0x46,Write,ACK
0.555619000000000,84,0xAA,0x00,Write,ACK
0.555641500000000,84,0xAA,0x00,Write,ACK
0.555664000000000,84,0xAA,0x40,Write,ACK
0.579954000000000,85,0xAB,0x00,Read,ACK
0.579976500000000,85,0xAB,0x00,Read,ACK
0.579999000000000,85,0xAB,0x00,Read,ACK
0.580021500000000,85,0xAB,0x42,Read,NAK
0.581195500000000,86,0xAB,0x5D,Read,ACK
0.581218000000000,86,0xAB,0x7F,Read,ACK
0.581240500000000,86,0xAB,0xD4,Read,ACK
0.581263000000000,86,0xAB,0x5C,Read,ACK
0.581285500000000,86,0xAB,0x4C,Read,ACK
0.581308000000000,86,0xAB,0x5D,Read,ACK
0.581330500000000,86,0xAB,0x53,Read,ACK
0.581353000000000,86,0xAB,0x97,Read,ACK
0.581375500000000,86,0xAB,0x94,Read,ACK
0.581398000000000,86,0xAB,0x28,Read,ACK
0.581420500000000,86,0xAB,0x03,Read,ACK
0.581443000000000,86,0xAB,0x7D,Read,ACK
0.581465500000000,86,0xAB,0x49,Read,ACK
0.581488000000000,86,0xAB,0x60,Read,ACK
0.581510500000000,86,0xAB,0xE2,Read,ACK
0.581533000000000,86,0xAB,0x89,Read,ACK
0.581555500000000,86,0xAB,0x35,Read,ACK
0.581578000000000,86,0xAB,0x7F,Read,ACK
0.581600500000000,86,0xAB,0xBF,Read,ACK
0.581623000000000,86,0xAB,0xB5,Read,ACK
0.581645500000000,86,0xAB,0x36,Read,ACK
0.581668000000000,86,0xAB,0x69,Read,ACK
0.581690500000000,86,0xAB,0xF1,Read,ACK
0.581713000000000,86,0xAB,0x19,Read,ACK
0.581735500000000,86,0xAB,0xDC,Read,ACK
0.581758000000000,86,0xAB,0xF2,Read,ACK
0.581780500000000,86,0xAB,0x34,Read,ACK
0.581803000000000,86,0xAB,0x08,Read,ACK
0.581825500000000,86,0xAB,0x38,Read,ACK
0.581848000000000,86,0xAB,0x98,Read,ACK
0.581870500000000,86,0xAB,0x10,Read,ACK
0.581893000000000,86,0xAB,0x44,Read,ACK
0.581915500000000,86,0xAB,0xEB,Read,ACK
0.581938000000000,86,0xAB,0xC8,Read,ACK
0.581960500000000,86,0xAB,0x09,Read,ACK
0.581983000000000,86,0xAB,0x0A,Read,ACK
0.582005500000000,86,0xAB,0x06,Read,ACK
0.582028000000000,86,0xAB,0x6D,Read,ACK
0.582050500000000,86,0xAB,0xF5,Read,ACK
0.582073000000000,86,0xAB,0xF7,Read,ACK
0.582095500000000,86,0xAB,0x0C,Read,ACK
0.582118000000000,86,0xAB,0x24,Read,ACK
0.582140500000000,86,0xAB,0x97,Read,ACK
0.582163000000000,86,0xAB,0xE9,Read,ACK
0.582185500000000,86,0xAB,0x99,Read,ACK
0.582208000000000,86,0xAB,0xA8,Read,ACK
0.582230500000000,86,0xAB,0xF7,Read,ACK
0.582253000000000,86,0xAB,0x73,Read,ACK
0.582275500000000,86,0xAB,0x3C,Read,ACK
0.582298000000000,86,0xAB,0x52,Read,ACK
0.582320500000000,86,0xAB,0x04,Read,ACK
0.582343000000000,86,0xAB,0xA0,Read,ACK
0.582365500000000,86,0xAB,0xE2,Read,ACK
0.582388000000000,86,0xAB,0xD7,Read,ACK
0.582410500000000,86,0xAB,0x77,Read,ACK
0.582433000000000,86,0xAB,0x01,Read,ACK
0.582455500000000,86,0xAB,0x0F,Read,ACK
0.582478000000000,86,0xAB,0x01,Read,ACK
0.582500500000000,86,0xAB,0xF4,Read,ACK
0.582523000000000,86,0xAB,0x0C,Read,ACK
0.582545500000000,86,0xAB,0xEB,Read,ACK
0.582568000000000,86,0xAB,0x2A,Read,ACK
0.582590500000000,86,0xAB,0x71,Read,ACK
0.582613000000000,86,0xAB,0xAE,Read,ACK
0.582635500000000,86,0xAB,0x90,Read,ACK
0.582658000000000,86,0xAB,0x00,Read,NAK
0.607150000000000,87,0xAA,0x00,Write,ACK
0.607173000000000,87,0xAA,0x2A,Write,ACK
0.607195500000000,87,0xAA,0x00,Write,ACK
0.607218000000000,87,0xAA,0x03,Write,ACK
0.607240500000000,87,0xAA,0x03,Write,ACK
0.607263000000000,87,0xAA,0x61,Write,ACK
0.607285500000000,87,0xAA,0x62,Write,ACK
0.607308000000000,87,0xAA,0x63,Write,ACK
0.607330500000000,87,0xAA,0x20,Write,ACK
0.611265000000000,88,0xAB,0x00,Read,ACK
0.611287500000000,88,0xAB,0x00,Read,ACK
0.611310000000000,88,0xAB,0x00,Read,ACK
0.611332500000000,88,0xAB,0x22,Read,NAK
0.612505500000000,89,0xAB,0xBA,Read,ACK
0.612528000000000,89,0xAB,0x78,Read,ACK
0.612550500000000,89,0xAB,0x16,Read,ACK
0.612573000000000,89,0xAB,0xBF,Read,ACK
0.612595500000000,89,0xAB,0x8F,Read,ACK
0.612618000000000,89,0xAB,0x01,Read,ACK
0.612640500000000,89,0xAB,0xCF,Read,ACK
0.612663000000000,89,0xAB,0xEA,Read,ACK
0.612685500000000,89,0xAB,0x41,Read,ACK
0.612708000000000,89,0xAB,0x41,Read,ACK
0.612730500000000,89,0xAB,0x40,Read,ACK
0.612753000000000,89,0xAB,0xDE,Read,ACK
0.612775500000000,89,0xAB,0x5D,Read,ACK
0.612798000000000,89,0xAB,0xAE,Read,ACK
0.612820500000000,89,0xAB,0x22,Read,ACK
0.612843000000000,89,0xAB,0x23,Read,ACK
0.612865500000000,89,0xAB,0xB0,Read,ACK
0.612888000000000,89,0xAB,0x03,Read,ACK
0.612910500000000,89,0xAB,0x61,Read,ACK
0.612933000000000,89,0xAB,0xA3,Read,ACK
0.612955500000000,89,0xAB,0x96,Read,ACK
0.612978000000000,89,0xAB,0x17,Read,ACK
0.613000500000000,89,0xAB,0x7A,Read,ACK
0.613023000000000,89,0xAB,0x9C,Read,ACK
0.613045500000000,89,0xAB,0xB4,Read,ACK
0.613068000000000,89,0xAB,0x10,Read,ACK
0.613090500000000,89,0xAB,0xFF,Read,ACK
0.613113000000000,89,0xAB,0x61,Read,ACK
0.613136000000000,89,0xAB,0xF2,Read,ACK
0.613158500000000,89,0xAB,0x00,Read,ACK
0.613181000000000,89,0xAB,0x15,Read,ACK
0.613203500000000,89,0xAB,0xAD,Read,ACK
0.613226000000000,89,0xAB,0x90,Read,ACK
0.613248500000000,89,0xAB,0x00,Read,NAK
0.626233000000000,90,0xAA,0x00,Write,ACK
0.626255500000000,90,0xAA,0x2B,Write,ACK
0.626278000000000,90,0xAA,0x00,Write,ACK
0.626300500000000,90,0xAA,0x00,Write,ACK
0.626323000000000,90,0xAA,0x40,Write,ACK
0.655592500000000,91,0xAB,0x00,Read,ACK
0.655615000000000,91,0xAB,0x00,Read,ACK
0.655637500000000,91,0xAB,0x00,Read,ACK
0.655660000000000,91,0xAB,0x42,Read,NAK
0.656830500000000,92,0xAB,0xF1,Read,ACK
0.656853000000000,92,0xAB,0x3F,Read,ACK
0.656875500000000,92,0xAB,0x37,Read,ACK
0.656898000000000,92,0xAB,0x70,Read,ACK
0.656920500000000,92,0xAB,0x81,Read,ACK
0.656943000000000,92,0xAB,0x20,Read,ACK
0.656965500000000,92,0xAB,0x46,Read,ACK
0.656988000000000,92,0xAB,0xDA,Read,ACK
0.657010500000000,92,0xAB,0xA1,Read,ACK
0.657033000000000,92,0xAB,0x0C,Read,ACK
0.657055500000000,92,0xAB,0x4C,Read,ACK
0.657078000000000,92,0xAB,0x5C,Read,ACK
0.657100500000000,92,0xAB,0x17,Read,ACK
0.657123000000000,92,0xAB,0xC8,Read,ACK
0.657145500000000,92,0xAB,0x18,Read,ACK
0.657168000000000,92,0xAB,0xC8,Read,ACK
0.657190500000000,92,0xAB,0x04,Read,ACK
0.657213000000000,92,0xAB,0x8A,Read,ACK
0.657235500000000,92,0xAB,0x4C,Read,ACK
0.657258000000000,92,0xAB,0x6B,Read,ACK
0.657281000000000,92,0xAB,0x51,Read,ACK
0.657303500000000,92,0xAB,0x5D,Read,ACK
0.657326000000000,92,0xAB,0x35,Read,ACK
0.657348500000000,92,0xAB,0x2D,Read,ACK
0.657371000000000,92,0xAB,0x22,Read,ACK
0.657393500000000,92,0xAB,0x36,Read,ACK
0.657416000000000,92,0xAB,0xA8,Read,ACK
0.657438500000000,92,0xAB,0x36,Read,ACK
0.657461000000000,92,0xAB,0x3C,Read,ACK
0.657483500000000,92,0xAB,0x8D,Read,ACK
0.657506000000000,92,0xAB,0x7A,Read,ACK
0.657528500000000,92,0xAB,0x70,Read,ACK
0.657551000000000,92,0xAB,0xAB,Read,ACK
0.657573500000000,92,0xAB,0xD9,Read,ACK
0.657596000000000,92,0xAB,0xF6,Read,ACK
0.657618500000000,92,0xAB,0xD6,Read,ACK
0.657641000000000,92,0xAB,0x2A,Read,ACK
0.657663500000000,92,0xAB,0xFE,Read,ACK
0.657686000000000,92,0xAB,0xF6,Read,ACK
0.657708500000000,92,0xAB,0xA6,Read,ACK
0.657731000000000,92,0xAB,0x2C,Read,ACK
0.657753500000000,92,0xAB,0xF4,Read,ACK
0.657776000000000,92,0xAB,0x63,Read,ACK
0.657798500000000,92,0xAB,0x53,Read,ACK
0.657821000000000,92,0xAB,0xC7,Read,ACK
0.657843500000000,92,0xAB,0x98,Read,ACK
0.657866000000000,92,0xAB,0x1C,Read,ACK
0.657888500000000,92,0xAB,0x05,Read,ACK
0.657911000000000,92,0xAB,0x5E,Read,ACK
0.657933500000000,92,0xAB,0xCA,Read,ACK
0.657956000000000,92,0xAB,0x53,Read,ACK
0.657978500000000,92,0xAB,0x8F,Read,ACK
0.658001000000000,92,0xAB,0x21,Read,ACK
0.658023500000000,92,0xAB,0xEF,Read,ACK
0.658046000000000,92,0xAB,0xFF,Read,ACK
0.658068500000000,92,0xAB,0x75,Read,ACK
0.658091000000000,92,0xAB,0xEA,Read,ACK
0.658113500000000,92,0xAB,0xD0,Read,ACK
0.658136000000000,92,0xAB,0x86,Read,ACK
0.658158500000000,92,0xAB,0x13,Read,ACK
0.658181000000000,92,0xAB,0x4C,Read,ACK
0.658203500000000,92,0xAB,0x9D,Read,ACK
0.658226000000000,92,0xAB,0x8A,Read,ACK
0.658248500000000,92,0xAB,0x25,Read,ACK
0.658271000000000,92,0xAB,0x90,Read,ACK
0.658293500000000,92,0xAB,0x00,Read,NAK
0.682880500000000,93,0xAA,0x00,Write,ACK
0.682903000000000,93,0xAA,0x2B,Write,ACK
0.682925500000000,93,0xAA,0x01,Write,ACK
0.682948000000000,93,0xAA,0x00,Write,ACK
0.682970500000000,93,0xAA,0x40,Write,ACK
0.682993000000000,93,0xAA,0xF1,Write,ACK
0.683015500000000,93,0xAA,0x3F,Write,ACK
0.683038000000000,93,0xAA,0x37,Write,ACK
0.683060500000000,93,0xAA,0x70,Write,ACK
0.683083000000000,93,0xAA,0x81,Write,ACK
0.683105500000000,93,0xAA,0x20,Write,ACK
0.683128000000000,93,0xAA,0x46,Write,ACK
0.683150500000000,93,0xAA,0xDA,Write,ACK
0.683173000000000,93,0xAA,0xA1,Write,ACK
0.683195500000000,93,0xAA,0x0C,Write,ACK
0.683218000000000,93,0xAA,0x4C,Write,ACK
0.683240500000000,93,0xAA,0x5C,Write,ACK
0.683263000000000,93,0xAA,0x17,Write,ACK
0.683285500000000,93,0xAA,0xC8,Write,ACK
0.683308000000000,93,0xAA,0x18,Write,ACK
0.683330500000000,93,0xAA,0xC8,Write,ACK
0.683353000000000,93,0xAA,0x04,Write,ACK
0.683375500000000,93,0xAA,0x8A,Write,ACK
0.683398000000000,93,0xAA,0x4C,Write,ACK
0.683420500000000,93,0xAA,0x6B,Write,ACK
0.683443000000000,93,0xAA,0x51,Write,ACK
0.683465500000000,93,0xAA,0x5D,Write,ACK
0.683488000000000,93,0xAA,0x35,Write,ACK
0.683510500000000,93,0xAA,0x2D,Write,ACK
0.683533000000000,93,0xAA,0x22,Write,ACK
0.683555500000000,93,0xAA,0x36,Write,ACK
0.683578000000000,93,0xAA,0xA8,Write,ACK
0.683600500000000,93,0xAA,0x36,Write,ACK
0.683623000000000,93,0xAA,0x3C,Write,ACK
0.683645500000000,93,0xAA,0x8D,Write,ACK
0.683668000000000,93,0xAA,0x7A,Write,ACK
0.683690500000000,93,0xAA,0x70,Write,ACK
0.683713000000000,93,0xAA,0xAB,Write,ACK
0.683735500000000,93,0xAA,0xD9,Write,ACK
0.683758000000000,93,0xAA,0xF6,Write,ACK
0.683780500000000,93,0xAA,0xD6,Write,ACK
0.683803000000000,93,0xAA,0x2A,Write,ACK
0.683825500000000,93,0xAA,0xFE,Write,ACK
0.683848000000000,93,0xAA,0xF6,Write,ACK
0.683870500000000,93,0xAA,0xA6,Write,ACK
0.683893000000000,93,0xAA,0x2C,Write,ACK
0.683915500000000,93,0xAA,0xF4,Write,ACK
0.683938000000000,93,0xAA,0x63,Write,ACK
0.683960500000000,93,0xAA,0x53,Write,ACK
0.683983000000000,93,0xAA,0xC7,Write,ACK
0.684005500000000,93,0xAA,0x98,Write,ACK
0.684028000000000,93,0xAA,0x1C,Write,ACK
0.684050500000000,93,0xAA,0x05,Write,ACK
0.684073000000000,93,0xAA,0x5E,Write,ACK
0.684095500000000,93,0xAA,0xCA,Write,ACK
0.684118000000000,93,0xAA,0x53,Write,ACK
0.684140500000000,93,0xAA,0x8F,Write,ACK
0.684163000000000,93,0xAA,0x21,Write,ACK
0.684185500000000,93,0xAA,0xEF,Write,ACK
0.684208000000000,93,0xAA,0xFF,Write,ACK
0.684230500000000,93,0xAA,0x75,Write,ACK
0.684253000000000,93,0xAA,0xEA,Write,ACK
0.684275500000000,93,0xAA,0xD0,Write,ACK
0.684298000000000,93,0xAA,0x86,Write,ACK
0.684320500000000,93,0xAA,0x13,Write,ACK
0.684343000000000,93,0xAA,0x4C,Write,ACK
0.684365500000000,93,0xAA,0x9D,Write,ACK
0.684388000000000,93,0xAA,0x8A,Write,ACK
0.684410500000000,93,0xAA,0x25,Write,ACK
0.743449000000000,94,0xAB,0x00,Read,ACK
0.743471500000000,94,0xAB,0x00,Read,ACK
0.743494000000000,94,0xAB,0x00,Read,ACK
0.743516500000000,94,0xAB,0x02,Read,NAK
0.744693500000000,95,0xAB,0x90,Read,ACK
0.744716000000000,95,0xAB,0x00,Read,NAK
0.754886000000000,96,0xAA,0x00,Write,ACK
0.754908500000000,96,0xAA,0x2D,Write,ACK
0.754931000000000,96,0xAA,0x00,Write,ACK
0.754953500000000,96,0xAA,0x00,Write,ACK
0.754976000000000,96,0xAA,0x10,Write,ACK
0.754998500000000,96,0xAA,0x01,Write,ACK
0.755021000000000,96,0xAA,0x02,Write,ACK
0.755043500000000,96,0xAA,0x03,Write,ACK
0.755066000000000,96,0xAA,0x04,Write,ACK
0.755088500000000,96,0xAA,0x05,Write,ACK
0.755111000000000,96,0xAA,0x06,Write,ACK
0.755133500000000,96,0xAA,0x07,Write,ACK
0.755156000000000,96,0xAA,0x08,Write,ACK
0.755178500000000,96,0xAA,0x11,Write,ACK
0.755201000000000,96,0xAA,0x22,Write,ACK
0.755223500000000,96,0xAA,0x33,Write,ACK
0.755246000000000,96,0xAA,0x44,Write,ACK
0.755268500000000,96,0xAA,0x55,Write,ACK
0.755291000000000,96,0xAA,0x66,Write,ACK
0.755313500000000,96,0xAA,0x77,Write,ACK
0.755336000000000,96,0xAA,0x88,Write,ACK
0.755358500000000,96,0xAA,0x40,Write,ACK
0.815845000000000,97,0xAB,0x00,Read,ACK
0.815867500000000,97,0xAB,0x00,Read,ACK
0.815890000000000,97,0xAB,0x00,Read,ACK
0.815912500000000,97,0xAB,0x72,Read,NAK
0.817085000000000,98,0xAB,0xEF,Read,ACK
0.817107500000000,98,0xAB,0x95,Read,ACK
0.817130000000000,98,0xAB,0x53,Read,ACK
0.817152500000000,98,0xAB,0x7D,Read,ACK
0.817175000000000,98,0xAB,0x5F,Read,ACK
0.817197500000000,98,0xAB,0x77,Read,ACK
0.817220000000000,98,0xAB,0xAE,Read,ACK
0.817242500000000,98,0xAB,0xBC,Read,ACK
0.817265000000000,98,0xAB,0x6F,Read,ACK
0.817287500000000,98,0xAB,0x40,Read,ACK
0.817310000000000,98,0xAB,0x09,Read,ACK
0.817332500000000,98,0xAB,0xDB,Read,ACK
0.817355000000000,98,0xAB,0xFA,Read,ACK
0.817377500000000,98,0xAB,0x19,Read,ACK
0.817400000000000,98,0xAB,0x17,Read,ACK
0.817422500000000,98,0xAB,0x1F,Read,ACK
0.817445000000000,98,0xAB,0x92,Read,ACK
0.817467500000000,98,0xAB,0xDD,Read,ACK
0.817490000000000,98,0xAB,0x65,Read,ACK
0.817512500000000,98,0xAB,0x82,Read,ACK
0.817535000000000,98,0xAB,0x38,Read,ACK
0.817557500000000,98,0xAB,0x6F,Read,ACK
0.817580000000000,98,0xAB,0x66,Read,ACK
0.817602500000000,98,0xAB,0x1D,Read,ACK
0.817625000000000,98,0xAB,0xB7,Read,ACK
0.817647500000000,98,0xAB,0xD6,Read,ACK
0.817670000000000,98,0xAB,0x1D,Read,ACK
0.817692500000000,98,0xAB,0xE5,Read,ACK
0.817715000000000,98,0xAB,0x1A,Read,ACK
0.817737500000000,98,0xAB,0x2D,Read,ACK
0.817760000000000,98,0xAB,0x45,Read,ACK
0.817782500000000,98,0xAB,0xDB,Read,ACK
0.817805000000000,98,0xAB,0x02,Read,ACK
0.817827500000000,98,0xAB,0x64,Read,ACK
0.817850000000000,98,0xAB,0x31,Read,ACK
0.817872500000000,98,0xAB,0xA4,Read,ACK
0.817895000000000,98,0xAB,0x81,Read,ACK
0.817917500000000,98,0xAB,0xF1,Read,ACK
0.817940000000000,98,0xAB,0x06,Read,ACK
0.817962500000000,98,0xAB,0xEA,Read,ACK
0.817985000000000,98,0xAB,0xA4,Read,ACK
0.818007500000000,98,0xAB,0xC4,Read,ACK
0.818030000000000,98,0xAB,0x1E,Read,ACK
0.818052500000000,98,0xAB,0x47,Read,ACK
0.818075000000000,98,0xAB,0xF4,Read,ACK
0.818097500000000,98,0xAB,0x3B,Read,ACK
0.818120000000000,98,0xAB,0x44,Read,ACK
0.818142500000000,98,0xAB,0x97,Read,ACK
0.818165000000000,98,0xAB,0x4E,Read,ACK
0.818187500000000,98,0xAB,0x3A,Read,ACK
0.818210000000000,98,0xAB,0xE1,Read,ACK
0.818233000000000,98,0xAB,0x89,Read,ACK
0.818255500000000,98,0xAB,0xE8,Read,ACK
0.818278000000000,98,0xAB,0xD9,Read,ACK
0.818300500000000,98,0xAB,0xBA,Read,ACK
0.818323000000000,98,0xAB,0x0F,Read,ACK
0.818345500000000,98,0xAB,0x2C,Read,ACK
0.818368000000000,98,0xAB,0x58,Read,ACK
0.818390500000000,98,0xAB,0xA6,Read,ACK
0.818413000000000,98,0xAB,0x4B,Read,ACK
0.818435500000000,98,0xAB,0x3F,Read,ACK
0.818458000000000,98,0xAB,0x3E,Read,ACK
0.818480500000000,98,0xAB,0x00,Read,ACK
0.818503000000000,98,0xAB,0x73,Read,ACK
0.818525500000000,98,0xAB,0xF7,Read,ACK
0.818548000000000,98,0xAB,0xDF,Read,ACK
0.818570500000000,98,0xAB,0xBD,Read,ACK
0.818593000000000,98,0xAB,0x77,Read,ACK
0.818615500000000,98,0xAB,0x1D,Read,ACK
0.818638000000000,98,0xAB,0xFC,Read,ACK
0.818660500000000,98,0xAB,0x76,Read,ACK
0.818683000000000,98,0xAB,0x75,Read,ACK
0.818705500000000,98,0xAB,0xC2,Read,ACK
0.818728000000000,98,0xAB,0xA1,Read,ACK
0.818750500000000,98,0xAB,0x48,Read,ACK
0.818773000000000,98,0xAB,0xAD,Read,ACK
0.818795500000000,98,0xAB,0x4F,Read,ACK
0.818818000000000,98,0xAB,0x11,Read,ACK
0.818840500000000,98,0xAB,0x1C,Read,ACK
0.818863000000000,98,0xAB,0x5F,Read,ACK
0.818885500000000,98,0xAB,0x32,Read,ACK
0.818908000000000,98,0xAB,0x58,Read,ACK
0.818930500000000,98,0xAB,0xB7,Read,ACK
0.818953000000000,98,0xAB,0x7D,Read,ACK
0.818975500000000,98,0xAB,0xC4,Read,ACK
0.818998000000000,98,0xAB,0xE0,Read,ACK
0.819020500000000,98,0xAB,0x6C,Read,ACK
0.819043000000000,98,0xAB,0xFE,Read,ACK
0.819065500000000,98,0xAB,0xE9,Read,ACK
0.819088000000000,98,0xAB,0x81,Read,ACK
0.819110500000000,98,0xAB,0xF8,Read,ACK
0.819133000000000,98,0xAB,0x07,Read,ACK
0.819155500000000,98,0xAB,0x52,Read,ACK
0.819178000000000,98,0xAB,0x60,Read,ACK
0.819200500000000,98,0xAB,0x35,Read,ACK
0.819223000000000,98,0xAB,0xE1,Read,ACK
0.819245500000000,98,0xAB,0x34,Read,ACK
0.819268000000000,98,0xAB,0xF0,Read,ACK
0.819290500000000,98,0xAB,0x7D,Read,ACK
0.819313000000000,98,0xAB,0xA8,Read,ACK
0.819335500000000,98,0xAB,0xF5,Read,ACK
0.819358000000000,98,0xAB,0x2A,Read,ACK
0.819380500000000,98,0xAB,0x1D,Read,ACK
0.819403000000000,98,0xAB,0x64,Read,ACK
0.819425500000000,98,0xAB,0xD9,Read,ACK
0.819448000000000,98,0xAB,0x56,Read,ACK
0.819470500000000,98,0xAB,0x80,Read,ACK
0.819493000000000,98,0xAB,0xC4,Read,ACK
0.819515500000000,98,0xAB,0x89,Read,ACK
0.819538000000000,98,0xAB,0xDE,Read,ACK
0.819560500000000,98,0xAB,0x9A,Read,ACK
0.819583000000000,98,0xAB,0xD5,Read,ACK
0.819605500000000,98,0xAB,0x90,Read,ACK
0.819628000000000,98,0xAB,0x00,Read,NAK
0.861798500000000,99,0xAA,0x00,Write,ACK
0.861821000000000,99,0xAA,0x2D,Write,ACK
0.861843500000000,99,0xAA,0x01,Write,ACK
0.861866000000000,99,0xAA,0x00,Write,ACK
0.861888500000000,99,0xAA,0x70,Write,ACK
0.861911000000000,99,0xAA,0xEF,Write,ACK
0.861933500000000,99,0xAA,0x95,Write,ACK
0.861956000000000,99,0xAA,0x53,Write,ACK
0.861978500000000,99,0xAA,0x7D,Write,ACK
0.862001000000000,99,0xAA,0x5F,Write,ACK
0.862023500000000,99,0xAA,0x77,Write,ACK
0.862046000000000,99,0xAA,0xAE,Write,ACK
0.862068500000000,99,0xAA,0xBC,Write,ACK
0.862091000000000,99,0xAA,0x6F,Write,ACK
0.862113500000000,99,0xAA,0x40,Write,ACK
0.862136000000000,99,0xAA,0x09,Write,ACK
0.862158500000000,99,0xAA,0xDB,Write,ACK
0.862181000000000,99,0xAA,0xFA,Write,ACK
0.862203500000000,99,0xAA,0x19,Write,ACK
0.862226000000000,99,0xAA,0x17,Write,ACK
0.862248500000000,99,0xAA,0x1F,Write,ACK
0.862271000000000,99,0xAA,0x92,Write,ACK
0.862293500000000,99,0xAA,0xDD,Write,ACK
0.862316000000000,99,0xAA,0x65,Write,ACK
0.862338500000000,99,0xAA,0x82,Write,ACK
0.862361000000000,99,0xAA,0x38,Write,ACK
0.862383500000000,99,0xAA,0x6F,Write,ACK
0.862406000000000,99,0xAA,0x66,Write,ACK
0.862428500000000,99,0xAA,0x1D,Write,ACK
0.862451000000000,99,0xAA,0xB7,Write,ACK
0.862473500000000,99,0xAA,0xD6,Write,ACK
0.862496000000000,99,0xAA,0x1D,Write,ACK
0.862518500000000,99,0xAA,0xE5,Write,ACK
0.862541000000000,99,0xAA,0x1A,Write,ACK
0.862563500000000,99,0xAA,0x2D,Write,ACK
0.862586000000000,99,0xAA,0x45,Write,ACK
0.862608500000000,99,0xAA,0xDB,Write,ACK
0.862631000000000,99,0xAA,0x02,Write,ACK
0.862653500000000,99,0xAA,0x64,Write,ACK
0.862676000000000,99,0xAA,0x31,Write,ACK
0.862698500000000,99,0xAA,0xA4,Write,ACK
0.862721000000000,99,0xAA,0x81,Write,ACK
0.862743500000000,99,0xAA,0xF1,Write,ACK
0.862766000000000,99,0xAA,0x06,Write,ACK
0.862788500000000,99,0xAA,0xEA,Write,ACK
0.862811000000000,99,0xAA,0xA4,Write,ACK
0.862833500000000,99,0xAA,0xC4,Write,ACK
0.862856000000000,99,0xAA,0x1E,Write,ACK
0.862878500000000,99,0xAA,0x47,Write,ACK
0.862901500000000,99,0xAA,0xF4,Write,ACK
0.862924000000000,99,0xAA,0x3B,Write,ACK
0.862946500000000,99,0xAA,0x44,Write,ACK
0.862969000000000,99,0xAA,0x97,Write,ACK
0.862991500000000,99,0xAA,0x4E,Write,ACK
0.863014000000000,99,0xAA,0x3A,Write,ACK
0.863036500000000,99,0xAA,0xE1,Write,ACK
0.863059000000000,99,0xAA,0x89,Write,ACK
0.863081500000000,99,0xAA,0xE8,Write,ACK
0.863104000000000,99,0xAA,0xD9,Write,ACK
0.863126500000000,99,0xAA,0xBA,Write,ACK
0.863149000000000,99,0xAA,0x0F,Write,ACK
0.863171500000000,99,0xAA,0x2C,Write,ACK
0.863194000000000,99,0xAA,0x58,Write,ACK
0.863216500000000,99,0xAA,0xA6,Write,ACK
0.863239000000000,99,0xAA,0x4B,Write,ACK
0.863261500000000,99,0xAA,0x3F,Write,ACK
0.863284000000000,99,0xAA,0x3E,Write,ACK
0.863306500000000,99,0xAA,0x00,Write,ACK
0.863329000000000,99,0xAA,0x73,Write,ACK
0.863351500000000,99,0xAA,0xF7,Write,ACK
0.863374000000000,99,0xAA,0xDF,Write,ACK
0.863396500000000,99,0xAA,0xBD,Write,ACK
0.863419000000000,99,0xAA,0x77,Write,ACK
0.863441500000000,99,0xAA,0x1D,Write,ACK
0.863464000000000,99,0xAA,0xFC,Write,ACK
0.863486500000000,99,0xAA,0x76,Write,ACK
0.863509000000000,99,0xAA,0x75,Write,ACK
0.863531500000000,99,0xAA,0xC2,Write,ACK
0.863554000000000,99,0xAA,0xA1,Write,ACK
0.863576500000000,99,0xAA,0x48,Write,ACK
0.863599000000000,99,0xAA,0xAD,Write,ACK
0.863621500000000,99,0xAA,0x4F,Write,ACK
0.863644000000000,99,0xAA,0x11,Write,ACK
0.863666500000000,99,0xAA,0x1C,Write,ACK
0.863689000000000,99,0xAA,0x5F,Write,ACK
0.863711500000000,99,0xAA,0x32,Write,ACK
0.863734000000000,99,0xAA,0x58,Write,ACK
0.863756500000000,99,0xAA,0xB7,Write,ACK
0.863779000000000,99,0xAA,0x7D,Write,ACK
0.863801500000000,99,0xAA,0xC4,Write,ACK
0.863824000000000,99,0xAA,0xE0,Write,ACK
0.863846500000000,99,0xAA,0x6C,Write,ACK
0.863869000000000,99,0xAA,0xFE,Write,ACK
0.863891500000000,99,0xAA,0xE9,Write,ACK
0.863914000000000,99,0xAA,0x81,Write,ACK
0.863936500000000,99,0xAA,0xF8,Write,ACK
0.863959000000000,99,0xAA,0x07,Write,ACK
0.863981500000000,99,0xAA,0x52,Write,ACK
0.864004000000000,99,0xAA,0x60,Write,ACK
0.864026500000000,99,0xAA,0x35,Write,ACK
0.864049000000000,99,0xAA,0xE1,Write,ACK
0.864071500000000,99,0xAA,0x34,Write,ACK
0.864094000000000,99,0xAA,0xF0,Write,ACK
0.864116500000000,99,0xAA,0x7D,Write,ACK
0.864139000000000,99,0xAA,0xA8,Write,ACK
0.864161500000000,99,0xAA,0xF5,Write,ACK
0.864184000000000,99,0xAA,0x2A,Write,ACK
0.864206500000000,99,0xAA,0x1D,Write,ACK
0.864229000000000,99,0xAA,0x64,Write,ACK
0.864251500000000,99,0xAA,0xD9,Write,ACK
0.864274000000000,99,0xAA,0x56,Write,ACK
0.864296500000000,99,0xAA,0x80,Write,ACK
0.864319000000000,99,0xAA,0xC4,Write,ACK
0.864341500000000,99,0xAA,0x89,Write,ACK
0.864364000000000,99,0xAA,0xDE,Write,ACK
0.864386500000000,99,0xAA,0x9A,Write,ACK
0.864409000000000,99,0xAA,0xD5,Write,ACK
0.864431500000000,99,0xAA,0x10,Write,ACK
0.907365000000000,100,0xAB,0x00,Read,ACK
0.907387500000000,100,0xAB,0x00,Read,ACK
0.907410000000000,100,0xAB,0x00,Read,ACK
0.907432500000000,100,0xAB,0x12,Read,NAK
0.908605500000000,101,0xAB,0x01,Read,ACK
0.908628000000000,101,0xAB,0x02,Read,ACK
0.908650500000000,101,0xAB,0x03,Read,ACK
0.908673000000000,101,0xAB,0x04,Read,ACK
0.908695500000000,101,0xAB,0x05,Read,ACK
0.908718000000000,101,0xAB,0x06,Read,ACK
0.908740500000000,101,0xAB,0x07,Read,ACK
0.908763000000000,101,0xAB,0x08,Read,ACK
0.908785500000000,101,0xAB,0x11,Read,ACK
0.908808000000000,101,0xAB,0x22,Read,ACK
0.908830500000000,101,0xAB,0x33,Read,ACK
0.908853000000000,101,0xAB,0x44,Read,ACK
0.908875500000000,101,0xAB,0x55,Read,ACK
0.908898000000000,101,0xAB,0x66,Read,ACK
0.908920500000000,101,0xAB,0x77,Read,ACK
0.908943000000000,101,0xAB,0x88,Read,ACK
0.908965500000000,101,0xAB,0x90,Read,ACK
0.908988000000000,101,0xAB,0x00,Read,NAK
0.919231000000000,102,0xAA,0x00,Write,ACK
0.919253500000000,102,0xAA,0xFF,Write,ACK
0.919276000000000,102,0xAA,0x00,Write,ACK
0.919298500000000,102,0xAA,0x00,Write,ACK
0.919321000000000,102,0xAA,0x09,Write,ACK
0.919343500000000,102,0xAA,0x31,Write,ACK
0.919366000000000,102,0xAA,0x32,Write,ACK
0.919388500000000,102,0xAA,0x33,Write,ACK
0.919411000000000,102,0xAA,0x34,Write,ACK
0.919433500000000,102,0xAA,0x35,Write,ACK
0.919456000000000,102,0xAA,0x36,Write,ACK
0.919478500000000,102,0xAA,0x37,Write,ACK
0.919501000000000,102,0xAA,0x38,Write,ACK
0.919523500000000,102,0xAA,0x39,Write,ACK
0.919546000000000,102,0xAA,0x02,Write,ACK
0.925543000000000,103,0xAB,0x00,Read,ACK
0.925565500000000,103,0xAB,0x00,Read,ACK
0.925588000000000,103,0xAB,0x00,Read,ACK
0.925610500000000,103,0xAB,0x04,Read,NAK
0.926783000000000,104,0xAB,0x89,Read,ACK
0.926805500000000,104,0xAB,0x21,Read,ACK
0.926828000000000,104,0xAB,0x90,Read,ACK
0.926850500000000,104,0xAB,0x00,Read,NAK
0.931787500000000,105,0xAA,0x00,Write,ACK
0.931810000000000,105,0xAA,0x2A,Write,ACK
0.931832500000000,105,0xAA,0x00,Write,ACK
0.931855000000000,105,0xAA,0x00,Write,ACK
0.931877500000000,105,0xAA,0x03,Write,ACK
0.931900000000000,105,0xAA,0x61,Write,ACK
0.931922500000000,105,0xAA,0x62,Write,ACK
0.931945000000000,105,0xAA,0x63,Write,ACK
0.931967500000000,105,0xAA,0x20,Write,ACK
0.935903000000000,106,0xAB,0x00,Read,ACK
0.935925500000000,106,0xAB,0x00,Read,ACK
0.935948000000000,106,0xAB,0x00,Read,ACK
0.935970500000000,106,0xAB,0x22,Read,NAK
0.937143000000000,107,0xAB,0x66,Read,ACK
0.937165500000000,107,0xAB,0xC7,Read,ACK
0.937188000000000,107,0xAB,0xF0,Read,ACK
0.937210500000000,107,0xAB,0xF4,Read,ACK
0.937233000000000,107,0xAB,0x62,Read,ACK
0.937255500000000,107,0xAB,0xEE,Read,ACK
0.937278000000000,107,0xAB,0xED,Read,ACK
0.937300500000000,107,0xAB,0xD9,Read,ACK
0.937323000000000,107,0xAB,0xD1,Read,ACK
0.937345500000000,107,0xAB,0xF2,Read,ACK
0.937368000000000,107,0xAB,0xD4,Read,ACK
0.937390500000000,107,0xAB,0x6B,Read,ACK
0.937413000000000,107,0xAB,0xDC,Read,ACK
0.937435500000000,107,0xAB,0x10,Read,ACK
0.937458000000000,107,0xAB,0xE4,Read,ACK
0.937480500000000,107,0xAB,0xE2,Read,ACK
0.937503000000000,107,0xAB,0x41,Read,ACK
0.937525500000000,107,0xAB,0x67,Read,ACK
0.937548000000000,107,0xAB,0xC4,Read,ACK
0.937571000000000,107,0xAB,0x87,Read,ACK
0.937593500000000,107,0xAB,0x5C,Read,ACK
0.937616000000000,107,0xAB,0xF2,Read,ACK
0.937638500000000,107,0xAB,0xF7,Read,ACK
0.937661000000000,107,0xAB,0xA2,Read,ACK
0.937683500000000,107,0xAB,0x29,Read,ACK
0.937706000000000,107,0xAB,0x7D,Read,ACK
0.937728500000000,107,0xAB,0xA0,Read,ACK
0.937751000000000,107,0xAB,0x2B,Read,ACK
0.937773500000000,107,0xAB,0x8F,Read,ACK
0.937796000000000,107,0xAB,0x4B,Read,ACK
0.937818500000000,107,0xAB,0xA8,Read,ACK
0.937841000000000,107,0xAB,0xE0,Read,ACK
0.937863500000000,107,0xAB,0x90,Read,ACK
0.937886000000000,107,0xAB,0x00,Read,NAK
0.950948500000000,108,0xAA,0x00,Write,ACK
0.950971000000000,108,0xAA,0x2A,Write,ACK
0.950993500000000,108,0xAA,0x00,Write,ACK
0.951016000000000,108,0xAA,0x00,Write,ACK
0.951038500000000,108,0xAA,0x40,Write,ACK
0.951061000000000,108,0xAA,0x61,Write,ACK
0.951083500000000,108,0xAA,0x62,Write,ACK
0.951106000000000,108,0xAA,0x63,Write,ACK
0.951128500000000,108,0xAA,0x64,Write,ACK
0.951151000000000,108,0xAA,0x61,Write,ACK
0.951173500000000,108,0xAA,0x62,Write,ACK
0.951196000000000,108,0xAA,0x63,Write,ACK
0.951218500000000,108,0xAA,0x64,Write,ACK
0.951241000000000,108,0xAA,0x61,Write,ACK
0.951263500000000,108,0xAA,0x62,Write,ACK
0.951286000000000,108,0xAA,0x63,Write,ACK
0.951308500000000,108,0xAA,0x64,Write,ACK
0.951331000000000,108,0xAA,0x61,Write,ACK
0.951353500000000,108,0xAA,0x62,Write,ACK
0.951376000000000,108,0xAA,0x63,Write,ACK
0.951398500000000,108,0xAA,0x64,Write,ACK
0.951421000000000,108,0xAA,0x61,Write,ACK
0.951443500000000,108,0xAA,0x62,Write,ACK
0.951466000000000,108,0xAA,0x63,Write,ACK
0.951488500000000,108,0xAA,0x64,Write,ACK
0.951511000000000,108,0xAA,0x61,Write,ACK
0.951533500000000,108,0xAA,0x62,Write,ACK
0.951556000000000,108,0xAA,0x63,Write,ACK
0.951578500000000,108,0xAA,0x64,Write,ACK
0.951601000000000,108,0xAA,0x61,Write,ACK
0.951623500000000,108,0xAA,0x62,Write,ACK
0.951646000000000,108,0xAA,0x63,Write,ACK
0.951668500000000,108,0xAA,0x64,Write,ACK
0.951691000000000,108,0xAA,0x61,Write,ACK
0.951713500000000,108,0xAA,0x62,Write,ACK
0.951736000000000,108,0xAA,0x63,Write,ACK
0.951758500000000,108,0xAA,0x64,Write,ACK
0.951781000000000,108,0xAA,0x61,Write,ACK
0.951803500000000,108,0xAA,0x62,Write,ACK
0.951826000000000,108,0xAA,0x63,Write,ACK
0.951848500000000,108,0xAA,0x64,Write,ACK
0.951871000000000,108,0xAA,0x61,Write,ACK
0.951893500000000,108,0xAA,0x62,Write,ACK
0.951916000000000,108,0xAA,0x63,Write,ACK
0.951938500000000,108,0xAA,0x64,Write,ACK
0.951961000000000,108,0xAA,0x61,Write,ACK
0.951983500000000,108,0xAA,0x62,Write,ACK
0.952006000000000,108,0xAA,0x63,Write,ACK
0.952028500000000,108,0xAA,0x64,Write,ACK
0.952051000000000,108,0xAA,0x61,Write,ACK
0.952073500000000,108,0xAA,0x62,Write,ACK
0.952096000000000,108,0xAA,0x63,Write,ACK
0.952118500000000,108,0xAA,0x64,Write,ACK
0.952141000000000,108,0xAA,0x61,Write,ACK
0.952163500000000,108,0xAA,0x62,Write,ACK
0.952186000000000,108,0xAA,0x63,Write,ACK
0.952208500000000,108,0xAA,0x64,Write,ACK
0.952231500000000,108,0xAA,0x61,Write,ACK
0.952254000000000,108,0xAA,0x62,Write,ACK
0.952276500000000,108,0xAA,0x63,Write,ACK
0.952299000000000,108,0xAA,0x64,Write,ACK
0.952321500000000,108,0xAA,0x61,Write,ACK
0.952344000000000,108,0xAA,0x62,Write,ACK
0.952366500000000,108,0xAA,0x63,Write,ACK
0.952389000000000,108,0xAA,0x64,Write,ACK
0.952411500000000,108,0xAA,0x61,Write,ACK
0.952434000000000,108,0xAA,0x62,Write,ACK
0.952456500000000,108,0xAA,0x63,Write,ACK
0.952479000000000,108,0xAA,0x64,Write,ACK
0.952501500000000,108,0xAA,0x20,Write,ACK
0.978420000000000,109,0xAB,0x00,Read,ACK
0.978442500000000,109,0xAB,0x00,Read,ACK
0.978465000000000,109,0xAB,0x00,Read,ACK
0.978487500000000,109,0xAB,0x22,Read,NAK
0.979660500000000,110,0xAB,0xDE,Read,ACK
0.979683000000000,110,0xAB,0xBE,Read,ACK
0.979705500000000,110,0xAB,0x9F,Read,ACK
0.979728000000000,110,0xAB,0xF9,Read,ACK
0.979750500000000,110,0xAB,0x22,Read,ACK
0.979773000000000,110,0xAB,0x75,Read,ACK
0.979795500000000,110,0xAB,0xB8,Read,ACK
0.979818000000000,110,0xAB,0xA1,Read,ACK
0.979840500000000,110,0xAB,0x38,Read,ACK
0.979863000000000,110,0xAB,0x60,Read,ACK
0.979885500000000,110,0xAB,0x48,Read,ACK
0.979908000000000,110,0xAB,0x89,Read,ACK
0.979930500000000,110,0xAB,0xC1,Read,ACK
0.979953000000000,110,0xAB,0x8E,Read,ACK
0.979975500000000,110,0xAB,0x5A,Read,ACK
0.979998000000000,110,0xAB,0x4D,Read,ACK
0.980020500000000,110,0xAB,0x6F,Read,ACK
0.980043000000000,110,0xAB,0xDB,Read,ACK
0.980065500000000,110,0xAB,0x70,Read,ACK
0.980088000000000,110,0xAB,0xE5,Read,ACK
0.980110500000000,110,0xAB,0x38,Read,ACK
0.980133000000000,110,0xAB,0x7E,Read,ACK
0.980155500000000,110,0xAB,0x57,Read,ACK
0.980178000000000,110,0xAB,0x65,Read,ACK
0.980200500000000,110,0xAB,0x29,Read,ACK
0.980223000000000,110,0xAB,0x3D,Read,ACK
0.980245500000000,110,0xAB,0xCB,Read,ACK
0.980268000000000,110,0xAB,0xA3,Read,ACK
0.980290500000000,110,0xAB,0x9C,Read,ACK
0.980313000000000,110,0xAB,0x0C,Read,ACK
0.980335500000000,110,0xAB,0x57,Read,ACK
0.980358000000000,110,0xAB,0x32,Read,ACK
0.980380500000000,110,0xAB,0x90,Read,ACK
0.980403000000000,110,0xAB,0x00,Read,NAK
0.995194000000000,111,0xAA,0x00,Write,ACK
0.995216500000000,111,0xAA,0xC1,Write,ACK
0.995239000000000,111,0xAA,0x01,Write,ACK
0.995261500000000,111,0xAA,0x00,Write,ACK
0.995284000000000,111,0xAA,0x08,Write,ACK
0.995306500000000,111,0xAA,0x01,Write,ACK
0.995329000000000,111,0xAA,0x23,Write,ACK
0.995351500000000,111,0xAA,0x45,Write,ACK
0.995374000000000,111,0xAA,0x67,Write,ACK
0.995396500000000,111,0xAA,0x89,Write,ACK
0.995419000000000,111,0xAA,0xAB,Write,ACK
0.995441500000000,111,0xAA,0xCD,Write,ACK
0.995464000000000,111,0xAA,0xEF,Write,ACK
1.000768000000000,112,0xAB,0x00,Read,ACK
1.000790500000000,112,0xAB,0x00,Read,ACK
1.000813000000000,112,0xAB,0x00,Read,ACK
1.000835500000000,112,0xAB,0x02,Read,NAK
1.002008000000000,113,0xAB,0x90,Read,ACK
1.002030500000000,113,0xAB,0x00,Read,NAK
1.003500000000000,114,0xAA,0x00,Write,ACK
1.003522500000000,114,0xAA,0xC2,Write,ACK
1.003545000000000,114,0xAA,0x03,Write,ACK
1.003567500000000,114,0xAA,0x00,Write,ACK
1.003590000000000,114,0xAA,0x20,Write,ACK
1.003612500000000,114,0xAA,0x01,Write,ACK
1.003635000000000,114,0xAA,0x23,Write,ACK
1.003657500000000,114,0xAA,0x45,Write,ACK
1.003680000000000,114,0xAA,0x67,Write,ACK
1.003702500000000,114,0xAA,0x89,Write,ACK
1.003725000000000,114,0xAA,0xAB,Write,ACK
1.003747500000000,114,0xAA,0xCD,Write,ACK
1.003770000000000,114,0xAA,0xEF,Write,ACK
1.003792500000000,114,0xAA,0xFE,Write,ACK
1.003815000000000,114,0xAA,0xDC,Write,ACK
1.003837500000000,114,0xAA,0xBA,Write,ACK
1.003860000000000,114,0xAA,0x98,Write,ACK
1.003882500000000,114,0xAA,0x76,Write,ACK
1.003905000000000,114,0xAA,0x54,Write,ACK
1.003927500000000,114,0xAA,0x32,Write,ACK
1.003950000000000,114,0xAA,0x10,Write,ACK
1.003972500000000,114,0xAA,0x01,Write,ACK
1.003995000000000,114,0xAA,0x23,Write,ACK
1.004017500000000,114,0xAA,0x45,Write,ACK
1.004040000000000,114,0xAA,0x67,Write,ACK
1.004062500000000,114,0xAA,0x89,Write,ACK
1.004085000000000,114,0xAA,0xAB,Write,ACK
1.004107500000000,114,0xAA,0xCD,Write,ACK
1.004130000000000,114,0xAA,0xEF,Write,ACK
1.004152500000000,114,0xAA,0xFE,Write,ACK
1.004175000000000,114,0xAA,0xDC,Write,ACK
1.004197500000000,114,0xAA,0xBA,Write,ACK
1.004220000000000,114,0xAA,0x98,Write,ACK
1.004242500000000,114,0xAA,0x76,Write,ACK
1.004265000000000,114,0xAA,0x54,Write,ACK
1.004287500000000,114,0xAA,0x32,Write,ACK
1.004310000000000,114,0xAA,0x10,Write,ACK
1.004332500000000,114,0xAA,0xFF,Write,ACK
1.018744500000000,115,0xAB,0x00,Read,ACK
1.018767000000000,115,0xAB,0x00,Read,ACK
1.018789500000000,115,0xAB,0x00,Read,ACK
1.018812000000000,115,0xAB,0x32,Read,NAK
1.019985000000000,116,0xAB,0xB6,Read,ACK
1.020007500000000,116,0xAB,0xBA,Read,ACK
1.020030000000000,116,0xAB,0x88,Read,ACK
1.020052500000000,116,0xAB,0xC2,Read,ACK
1.020075000000000,116,0xAB,0xA1,Read,ACK
1.020097500000000,116,0xAB,0x4F,Read,ACK
1.020120000000000,116,0xAB,0xE0,Read,ACK
1.020142500000000,116,0xAB,0xE2,Read,ACK
1.020165000000000,116,0xAB,0x73,Read,ACK
1.020187500000000,116,0xAB,0x8A,Read,ACK
1.020210000000000,116,0xAB,0x67,Read,ACK
1.020232500000000,116,0xAB,0x56,Read,ACK
1.020255000000000,116,0xAB,0xD6,Read,ACK
1.020277500000000,116,0xAB,0x08,Read,ACK
1.020300000000000,116,0xAB,0x73,Read,ACK
1.020322500000000,116,0xAB,0x84,Read,ACK
1.020345000000000,116,0xAB,0xB6,Read,ACK
1.020367500000000,116,0xAB,0xBA,Read,ACK
1.020390000000000,116,0xAB,0x88,Read,ACK
1.020412500000000,116,0xAB,0xC2,Read,ACK
1.020435000000000,116,0xAB,0xA1,Read,ACK
1.020457500000000,116,0xAB,0x4F,Read,ACK
1.020480000000000,116,0xAB,0xE0,Read,ACK
1.020502500000000,116,0xAB,0xE2,Read,ACK
1.020525000000000,116,0xAB,0x73,Read,ACK
1.020547500000000,116,0xAB,0x8A,Read,ACK
1.020570000000000,116,0xAB,0x67,Read,ACK
1.020592500000000,116,0xAB,0x56,Read,ACK
1.020615000000000,116,0xAB,0xD6,Read,ACK
1.020637500000000,116,0xAB,0x08,Read,ACK
1.020660000000000,116,0xAB,0x73,Read,ACK
1.020682500000000,116,0xAB,0x84,Read,ACK
1.020705000000000,116,0xAB,0x23,Read,ACK
1.020727500000000,116,0xAB,0xC3,Read,ACK
1.020750000000000,116,0xAB,0x0B,Read,ACK
1.020772500000000,116,0xAB,0x33,Read,ACK
1.020795000000000,116,0xAB,0x79,Read,ACK
1.020817500000000,116,0xAB,0xE9,Read,ACK
1.020840000000000,116,0xAB,0x5E,Read,ACK
1.020862500000000,116,0xAB,0xD8,Read,ACK
1.020885000000000,116,0xAB,0x04,Read,ACK
1.020907500000000,116,0xAB,0x07,Read,ACK
1.020930000000000,116,0xAB,0xF6,Read,ACK
1.020952500000000,116,0xAB,0x20,Read,ACK
1.020975000000000,116,0xAB,0x2D,Read,ACK
1.020997500000000,116,0xAB,0x9B,Read,ACK
1.021020000000000,116,0xAB,0xE1,Read,ACK
1.021042500000000,116,0xAB,0xDE,Read,ACK
1.021065000000000,116,0xAB,0x90,Read,ACK
1.021087500000000,116,0xAB,0x00,Read,NAK
1.040140500000000,117,0xAA,0x00,Write,ACK
1.040163000000000,117,0xAA,0xC3,Write,ACK
1.040185500000000,117,0xAA,0x03,Write,ACK
1.040208000000000,117,0xAA,0x00,Write,ACK
1.040230500000000,117,0xAA,0x30,Write,ACK
1.040253000000000,117,0xAA,0xB6,Write,ACK
1.040275500000000,117,0xAA,0xBA,Write,ACK
1.040298000000000,117,0xAA,0x88,Write,ACK
1.040320500000000,117,0xAA,0xC2,Write,ACK
1.040343000000000,117,0xAA,0xA1,Write,ACK
1.040365500000000,117,0xAA,0x4F,Write,ACK
1.040388000000000,117,0xAA,0xE0,Write,ACK
1.040410500000000,117,0xAA,0xE2,Write,ACK
1.040433000000000,117,0xAA,0x73,Write,ACK
1.040455500000000,117,0xAA,0x8A,Write,ACK
1.040478000000000,117,0xAA,0x67,Write,ACK
1.040500500000000,117,0xAA,0x56,Write,ACK
1.040523000000000,117,0xAA,0xD6,Write,ACK
1.040545500000000,117,0xAA,0x08,Write,ACK
1.040568000000000,117,0xAA,0x73,Write,ACK
1.040590500000000,117,0xAA,0x84,Write,ACK
1.040613000000000,117,0xAA,0xB6,Write,ACK
1.040635500000000,117,0xAA,0xBA,Write,ACK
1.040658000000000,117,0xAA,0x88,Write,ACK
1.040680500000000,117,0xAA,0xC2,Write,ACK
1.040703000000000,117,0xAA,0xA1,Write,ACK
1.040725500000000,117,0xAA,0x4F,Write,ACK
1.040748000000000,117,0xAA,0xE0,Write,ACK
1.040770500000000,117,0xAA,0xE2,Write,ACK
1.040793000000000,117,0xAA,0x73,Write,ACK
1.040815500000000,117,0xAA,0x8A,Write,ACK
1.040838000000000,117,0xAA,0x67,Write,ACK
1.040860500000000,117,0xAA,0x56,Write,ACK
1.040883000000000,117,0xAA,0xD6,Write,ACK
1.040905500000000,117,0xAA,0x08,Write,ACK
1.040928000000000,117,0xAA,0x73,Write,ACK
1.040950500000000,117,0xAA,0x84,Write,ACK
1.040973000000000,117,0xAA,0x23,Write,ACK
1.040995500000000,117,0xAA,0xC3,Write,ACK
1.041018000000000,117,0xAA,0x0B,Write,ACK
1.041040500000000,117,0xAA,0x33,Write,ACK
1.041063000000000,117,0xAA,0x79,Write,ACK
1.041085500000000,117,0xAA,0xE9,Write,ACK
1.041108000000000,117,0xAA,0x5E,Write,ACK
1.041130500000000,117,0xAA,0xD8,Write,ACK
1.041153000000000,117,0xAA,0x04,Write,ACK
1.041175500000000,117,0xAA,0x07,Write,ACK
1.041198000000000,117,0xAA,0xF6,Write,ACK
1.041220500000000,117,0xAA,0x20,Write,ACK
1.041243000000000,117,0xAA,0x2D,Write,ACK
1.041265500000000,117,0xAA,0x9B,Write,ACK
1.041288000000000,117,0xAA,0xE1,Write,ACK
1.041310500000000,117,0xAA,0xDE,Write,ACK
1.041333000000000,117,0xAA,0xFF,Write,ACK
1.061235500000000,118,0xAB,0x00,Read,ACK
1.061258000000000,118,0xAB,0x00,Read,ACK
1.061280500000000,118,0xAB,0x00,Read,ACK
1.061303000000000,118,0xAB,0x22,Read,NAK
1.062475500000000,119,0xAB,0x01,Read,ACK
1.062498000000000,119,0xAB,0x23,Read,ACK
1.062520500000000,119,0xAB,0x45,Read,ACK
1.062543000000000,119,0xAB,0x67,Read,ACK
1.062565500000000,119,0xAB,0x89,Read,ACK
1.062588000000000,119,0xAB,0xAB,Read,ACK
1.062610500000000,119,0xAB,0xCD,Read,ACK
1.062633000000000,119,0xAB,0xEF,Read,ACK
1.062655500000000,119,0xAB,0xFE,Read,ACK
1.062678000000000,119,0xAB,0xDC,Read,ACK
1.062700500000000,119,0xAB,0xBA,Read,ACK
1.062723000000000,119,0xAB,0x98,Read,ACK
1.062745500000000,119,0xAB,0x76,Read,ACK
1.062768000000000,119,0xAB,0x54,Read,ACK
1.062790500000000,119,0xAB,0x32,Read,ACK
1.062813000000000,119,0xAB,0x10,Read,ACK
1.062835500000000,119,0xAB,0x01,Read,ACK
1.062858000000000,119,0xAB,0x23,Read,ACK
1.062881000000000,119,0xAB,0x45,Read,ACK
1.062903500000000,119,0xAB,0x67,Read,ACK
1.062926000000000,119,0xAB,0x89,Read,ACK
1.062948500000000,119,0xAB,0xAB,Read,ACK
1.062971000000000,119,0xAB,0xCD,Read,ACK
1.062993500000000,119,0xAB,0xEF,Read,ACK
1.063016000000000,119,0xAB,0xFE,Read,ACK
1.063038500000000,119,0xAB,0xDC,Read,ACK
1.063061000000000,119,0xAB,0xBA,Read,ACK
1.063083500000000,119,0xAB,0x98,Read,ACK
1.063106000000000,119,0xAB,0x76,Read,ACK
1.063128500000000,119,0xAB,0x54,Read,ACK
1.063151000000000,119,0xAB,0x32,Read,ACK
1.063173500000000,119,0xAB,0x10,Read,ACK
1.063196000000000,119,0xAB,0x90,Read,ACK
1.063218500000000,119,0xAB,0x00,Read,NAK
1.085164500000000,120,0xAA,0x00,Write,ACK
1.085187000000000,120,0xAA,0x46,Write,ACK
1.085209500000000,120,0xAA,0x00,Write,ACK
1.085232000000000,120,0xAA,0x01,Write,ACK
1.085254500000000,120,0xAA,0x40,Write,ACK
1.110562000000000,121,0xAB,0x00,Read,ACK
1.110584500000000,121,0xAB,0x00,Read,ACK
1.110607000000000,121,0xAB,0x00,Read,ACK
1.110629500000000,121,0xAB,0x42,Read,NAK
1.111800000000000,122,0xAB,0x72,Read,ACK
1.111822500000000,122,0xAB,0xD4,Read,ACK
1.111845000000000,122,0xAB,0xAF,Read,ACK
1.111867500000000,122,0xAB,0x11,Read,ACK
1.111890000000000,122,0xAB,0x79,Read,ACK
1.111912500000000,122,0xAB,0xCF,Read,ACK
1.111935000000000,122,0xAB,0xE0,Read,ACK
1.111957500000000,122,0xAB,0xB6,Read,ACK
1.111980500000000,122,0xAB,0x48,Read,ACK
1.112003000000000,122,0xAB,0xFD,Read,ACK
1.112025500000000,122,0xAB,0x1D,Read,ACK
1.112048000000000,122,0xAB,0x49,Read,ACK
1.112070500000000,122,0xAB,0xA0,Read,ACK
1.112093000000000,122,0xAB,0x7D,Read,ACK
1.112115500000000,122,0xAB,0x0B,Read,ACK
1.112138000000000,122,0xAB,0xE4,Read,ACK
1.112160500000000,122,0xAB,0x1F,Read,ACK
1.112183000000000,122,0xAB,0xD9,Read,ACK
1.112205500000000,122,0xAB,0xA9,Read,ACK
1.112228000000000,122,0xAB,0xD7,Read,ACK
1.112250500000000,122,0xAB,0xA2,Read,ACK
1.112273000000000,122,0xAB,0x4C,Read,ACK
1.112295500000000,122,0xAB,0x2F,Read,ACK
1.112318000000000,122,0xAB,0x2E,Read,ACK
1.112340500000000,122,0xAB,0xA8,Read,ACK
1.112363000000000,122,0xAB,0x3E,Read,ACK
1.112385500000000,122,0xAB,0x5D,Read,ACK
1.112408000000000,122,0xAB,0x66,Read,ACK
1.112430500000000,122,0xAB,0x92,Read,ACK
1.112453000000000,122,0xAB,0xCE,Read,ACK
1.112475500000000,122,0xAB,0xC5,Read,ACK
1.112498000000000,122,0xAB,0x8A,Read,ACK
1.112520500000000,122,0xAB,0x58,Read,ACK
1.112543000000000,122,0xAB,0x08,Read,ACK
1.112565500000000,122,0xAB,0x4D,Read,ACK
1.112588000000000,122,0xAB,0xCB,Read,ACK
1.112610500000000,122,0xAB,0x48,Read,ACK
1.112633000000000,122,0xAB,0xAB,Read,ACK
1.112655500000000,122,0xAB,0x4E,Read,ACK
1.112678000000000,122,0xAB,0xEF,Read,ACK
1.112700500000000,122,0xAB,0x9C,Read,ACK
1.112723000000000,122,0xAB,0xE0,Read,ACK
1.112745500000000,122,0xAB,0xBD,Read,ACK
1.112768000000000,122,0xAB,0x03,Read,ACK
1.112790500000000,122,0xAB,0xBC,Read,ACK
1.112813000000000,122,0xAB,0x7C,Read,ACK
1.112835500000000,122,0xAB,0x4C,Read,ACK
1.112858000000000,122,0xAB,0x23,Read,ACK
1.112880500000000,122,0xAB,0xCB,Read,ACK
1.112903000000000,122,0xAB,0x5C,Read,ACK
1.112925500000000,122,0xAB,0x33,Read,ACK
1.112948000000000,122,0xAB,0x77,Read,ACK
1.112970500000000,122,0xAB,0xFC,Read,ACK
1.112993000000000,122,0xAB,0x89,Read,ACK
1.113015500000000,122,0xAB,0xE3,Read,ACK
1.113038000000000,122,0xAB,0xD3,Read,ACK
1.113060500000000,122,0xAB,0x27,Read,ACK
1.113083000000000,122,0xAB,0x5A,Read,ACK
1.113105500000000,122,0xAB,0x0F,Read,ACK
1.113128000000000,122,0xAB,0x5D,Read,ACK
1.113150500000000,122,0xAB,0xDE,Read,ACK
1.113173000000000,122,0xAB,0x6F,Read,ACK
1.113195500000000,122,0xAB,0xDD,Read,ACK
1.113218000000000,122,0xAB,0xD3,Read,ACK
1.113240500000000,122,0xAB,0x90,Read,ACK
1.113263000000000,122,0xAB,0x00,Read,NAK
1.137754500000000,123,0xAA,0x00,Write,ACK
1.137777000000000,123,0xAA,0x2A,Write,ACK
1.137799500000000,123,0xAA,0x00,Write,ACK
1.137822000000000,123,0xAA,0x00,Write,ACK
1.137844500000000,123,0xAA,0x03,Write,ACK
1.137867000000000,123,0xAA,0x61,Write,ACK
1.137889500000000,123,0xAA,0x62,Write,ACK
1.137912000000000,123,0xAA,0x63,Write,ACK
1.137934500000000,123,0xAA,0x20,Write,ACK
1.141870000000000,124,0xAB,0x00,Read,ACK
1.141892500000000,124,0xAB,0x00,Read,ACK
1.141915000000000,124,0xAB,0x00,Read,ACK
1.141937500000000,124,0xAB,0x22,Read,NAK
1.143110500000000,125,0xAB,0x66,Read,ACK
1.143133000000000,125,0xAB,0xC7,Read,ACK
1.143155500000000,125,0xAB,0xF0,Read,ACK
1.143178000000000,125,0xAB,0xF4,Read,ACK
1.143200500000000,125,0xAB,0x62,Read,ACK
1.143223000000000,125,0xAB,0xEE,Read,ACK
1.143245500000000,125,0xAB,0xED,Read,ACK
1.143268000000000,125,0xAB,0xD9,Read,ACK
1.143290500000000,125,0xAB,0xD1,Read,ACK
1.143313000000000,125,0xAB,0xF2,Read,ACK
1.143335500000000,125,0xAB,0xD4,Read,ACK
1.143358000000000,125,0xAB,0x6B,Read,ACK
1.143380500000000,125,0xAB,0xDC,Read,ACK
1.143403000000000,125,0xAB,0x10,Read,ACK
1.143425500000000,125,0xAB,0xE4,Read,ACK
1.143448000000000,125,0xAB,0xE2,Read,ACK
1.143470500000000,125,0xAB,0x41,Read,ACK
1.143493000000000,125,0xAB,0x67,Read,ACK
1.143515500000000,125,0xAB,0xC4,Read,ACK
1.143538000000000,125,0xAB,0x87,Read,ACK
1.143560500000000,125,0xAB,0x5C,Read,ACK
1.143583000000000,125,0xAB,0xF2,Read,ACK
1.143605500000000,125,0xAB,0xF7,Read,ACK
1.143628000000000,125,0xAB,0xA2,Read,ACK
1.143650500000000,125,0xAB,0x29,Read,ACK
1.143673000000000,125,0xAB,0x7D,Read,ACK
1.143695500000000,125,0xAB,0xA0,Read,ACK
1.143718000000000,125,0xAB,0x2B,Read,ACK
1.143740500000000,125,0xAB,0x8F,Read,ACK
1.143763000000000,125,0xAB,0x4B,Read,ACK
1.143785500000000,125,0xAB,0xA8,Read,ACK
1.143808000000000,125,0xAB,0xE0,Read,ACK
1.143830500000000,125,0xAB,0x90,Read,ACK
1.143853000000000,125,0xAB,0x00,Read,NAK
1.156838000000000,126,0xAA,0x00,Write,ACK
1.156860500000000,126,0xAA,0x3B,Write,ACK
1.156883000000000,126,0xAA,0x00,Write,ACK
1.156905500000000,126,0xAA,0x00,Write,ACK
1.156928000000000,126,0xAA,0x40,Write,ACK
1.186721000000000,127,0xAB,0x00,Read,ACK
1.186743500000000,127,0xAB,0x00,Read,ACK
1.186766000000000,127,0xAB,0x00,Read,ACK
1.186788500000000,127,0xAB,0x42,Read,NAK
1.187963500000000,128,0xAB,0xA7,Read,ACK
1.187986000000000,128,0xAB,0xA8,Read,ACK
1.188008500000000,128,0xAB,0xDF,Read,ACK
1.188031000000000,128,0xAB,0x5F,Read,ACK
1.188053500000000,128,0xAB,0x26,Read,ACK
1.188076000000000,128,0xAB,0x58,Read,ACK
1.188098500000000,128,0xAB,0xD9,Read,ACK
1.188121000000000,128,0xAB,0x07,Read,ACK
1.188143500000000,128,0xAB,0x5E,Read,ACK
1.188166000000000,128,0xAB,0x8D,Read,ACK
1.188188500000000,128,0xAB,0x6E,Read,ACK
1.188211000000000,128,0xAB,0xE9,Read,ACK
1.188233500000000,128,0xAB,0x2A,Read,ACK
1.188256000000000,128,0xAB,0xD6,Read,ACK
1.188278500000000,128,0xAB,0xC0,Read,ACK
1.188301000000000,128,0xAB,0x24,Read,ACK
1.188323500000000,128,0xAB,0x70,Read,ACK
1.188346000000000,128,0xAB,0x4F,Read,ACK
1.188368500000000,128,0xAB,0xCB,Read,ACK
1.188391000000000,128,0xAB,0xA4,Read,ACK
1.188413500000000,128,0xAB,0xC5,Read,ACK
1.188436000000000,128,0xAB,0xE4,Read,ACK
1.188458500000000,128,0xAB,0xA7,Read,ACK
1.188481000000000,128,0xAB,0x26,Read,ACK
1.188503500000000,128,0xAB,0x48,Read,ACK
1.188526000000000,128,0xAB,0x8C,Read,ACK
1.188548500000000,128,0xAB,0xD9,Read,ACK
1.188571000000000,128,0xAB,0x75,Read,ACK
1.188593500000000,128,0xAB,0x75,Read,ACK
1.188616000000000,128,0xAB,0x2A,Read,ACK
1.188638500000000,128,0xAB,0xD7,Read,ACK
1.188661000000000,128,0xAB,0x02,Read,ACK
1.188683500000000,128,0xAB,0xDD,Read,ACK
1.188706000000000,128,0xAB,0xAE,Read,ACK
1.188728500000000,128,0xAB,0x45,Read,ACK
1.188751000000000,128,0xAB,0x68,Read,ACK
1.188773500000000,128,0xAB,0x16,Read,ACK
1.188796000000000,128,0xAB,0x10,Read,ACK
1.188818500000000,128,0xAB,0xA0,Read,ACK
1.188841000000000,128,0xAB,0xA3,Read,ACK
1.188863500000000,128,0xAB,0x9C,Read,ACK
1.188886500000000,128,0xAB,0xF1,Read,ACK
1.188909000000000,128,0xAB,0x6C,Read,ACK
1.188931500000000,128,0xAB,0xB3,Read,ACK
1.188954000000000,128,0xAB,0x61,Read,ACK
1.188976500000000,128,0xAB,0x6E,Read,ACK
1.188999000000000,128,0xAB,0x10,Read,ACK
1.189021500000000,128,0xAB,0x60,Read,ACK
1.189044000000000,128,0xAB,0x94,Read,ACK
1.189066500000000,128,0xAB,0xB8,Read,ACK
1.189089000000000,128,0xAB,0xC9,Read,ACK
1.189111500000000,128,0xAB,0xEE,Read,ACK
1.189134000000000,128,0xAB,0x2B,Read,ACK
1.189156500000000,128,0xAB,0xBC,Read,ACK
1.189179000000000,128,0xAB,0x21,Read,ACK
1.189201500000000,128,0xAB,0x5C,Read,ACK
1.189224000000000,128,0xAB,0xE8,Read,ACK
1.189246500000000,128,0xAB,0x42,Read,ACK
1.189269000000000,128,0xAB,0x4A,Read,ACK
1.189291500000000,128,0xAB,0x9F,Read,ACK
1.189314000000000,128,0xAB,0xB7,Read,ACK
1.189336500000000,128,0xAB,0x89,Read,ACK
1.189359000000000,128,0xAB,0x68,Read,ACK
1.189381500000000,128,0xAB,0x88,Read,ACK
1.189404000000000,128,0xAB,0x90,Read,ACK
1.189426500000000,128,0xAB,0x00,Read,NAK
1.213996500000000,129,0xAA,0x00,Write,ACK
1.214019000000000,129,0xAA,0x3B,Write,ACK
1.214041500000000,129,0xAA,0x01,Write,ACK
1.214064000000000,129,0xAA,0x00,Write,ACK
1.214086500000000,129,0xAA,0x40,Write,ACK
1.214109000000000,129,0xAA,0xA7,Write,ACK
1.214131500000000,129,0xAA,0xA8,Write,ACK
1.214154000000000,129,0xAA,0xDF,Write,ACK
1.214176500000000,129,0xAA,0x5F,Write,ACK
1.214199000000000,129,0xAA,0x26,Write,ACK
1.214221500000000,129,0xAA,0x58,Write,ACK
1.214244000000000,129,0xAA,0xD9,Write,ACK
1.214266500000000,129,0xAA,0x07,Write,ACK
1.214289000000000,129,0xAA,0x5E,Write,ACK
1.214311500000000,129,0xAA,0x8D,Write,ACK
1.214334000000000,129,0xAA,0x6E,Write,ACK
1.214356500000000,129,0xAA,0xE9,Write,ACK
1.214379000000000,129,0xAA,0x2A,Write,ACK
1.214401500000000,129,0xAA,0xD6,Write,ACK
1.214424000000000,129,0xAA,0xC0,Write,ACK
1.214446500000000,129,0xAA,0x24,Write,ACK
1.214469000000000,129,0xAA,0x70,Write,ACK
1.214491500000000,129,0xAA,0x4F,Write,ACK
1.214514000000000,129,0xAA,0xCB,Write,ACK
1.214536500000000,129,0xAA,0xA4,Write,ACK
1.214559000000000,129,0xAA,0xC5,Write,ACK
1.214581500000000,129,0xAA,0xE4,Write,ACK
1.214604000000000,129,0xAA,0xA7,Write,ACK
1.214626500000000,129,0xAA,0x26,Write,ACK
1.214649000000000,129,0xAA,0x48,Write,ACK
1.214671500000000,129,0xAA,0x8C,Write,ACK
1.214694000000000,129,0xAA,0xD9,Write,ACK
1.214716500000000,129,0xAA,0x75,Write,ACK
1.214739000000000,129,0xAA,0x75,Write,ACK
1.214761500000000,129,0xAA,0x2A,Write,ACK
1.214784000000000,129,0xAA,0xD7,Write,ACK
1.214806500000000,129,0xAA,0x02,Write,ACK
1.214829000000000,129,0xAA,0xDD,Write,ACK
1.214851500000000,129,0xAA,0xAE,Write,ACK
1.214874000000000,129,0xAA,0x45,Write,ACK
1.214896500000000,129,0xAA,0x68,Write,ACK
1.214919000000000,129,0xAA,0x16,Write,ACK
1.214941500000000,129,0xAA,0x10,Write,ACK
1.214964000000000,129,0xAA,0xA0,Write,ACK
1.214986500000000,129,0xAA,0xA3,Write,ACK
1.215009000000000,129,0xAA,0x9C,Write,ACK
1.215031500000000,129,0xAA,0xF1,Write,ACK
1.215054000000000,129,0xAA,0x6C,Write,ACK
1.215076500000000,129,0xAA,0xB3,Write,ACK
1.215099000000000,129,0xAA,0x61,Write,ACK
1.215121500000000,129,0xAA,0x6E,Write,ACK
1.215144000000000,129,0xAA,0x10,Write,ACK
1.215166500000000,129,0xAA,0x60,Write,ACK
1.215189000000000,129,0xAA,0x94,Write,ACK
1.215211500000000,129,0xAA,0xB8,Write,ACK
1.215234000000000,129,0xAA,0xC9,Write,ACK
1.215256500000000,129,0xAA,0xEE,Write,ACK
1.215279000000000,129,0xAA,0x2B,Write,ACK
1.215301500000000,129,0xAA,0xBC,Write,ACK
1.215324000000000,129,0xAA,0x21,Write,ACK
1.215346500000000,129,0xAA,0x5C,Write,ACK
1.215369000000000,129,0xAA,0xE8,Write,ACK
1.215391500000000,129,0xAA,0x42,Write,ACK
1.215414000000000,129,0xAA,0x4A,Write,ACK
1.215436500000000,129,0xAA,0x9F,Write,ACK
1.215459000000000,129,0xAA,0xB7,Write,ACK
1.215481500000000,129,0xAA,0x89,Write,ACK
1.215504000000000,129,0xAA,0x68,Write,ACK
1.215526500000000,129,0xAA,0x88,Write,ACK
1.270553500000000,130,0xAB,0x00,Read,ACK
1.270576000000000,130,0xAB,0x00,Read,ACK
1.270598500000000,130,0xAB,0x00,Read,ACK
1.270621000000000,130,0xAB,0x02,Read,NAK
1.271795500000000,131,0xAB,0x90,Read,ACK
1.271818000000000,131,0xAB,0x00,Read,NAK
1.281988000000000,132,0xAA,0x00,Write,ACK
1.282010500000000,132,0xAA,0x3D,Write,ACK
1.282033000000000,132,0xAA,0x00,Write,ACK
1.282055500000000,132,0xAA,0x00,Write,ACK
1.282078000000000,132,0xAA,0x10,Write,ACK
1.282100500000000,132,0xAA,0x01,Write,ACK
1.282123000000000,132,0xAA,0x02,Write,ACK
1.282145500000000,132,0xAA,0x03,Write,ACK
1.282168000000000,132,0xAA,0x04,Write,ACK
1.282190500000000,132,0xAA,0x05,Write,ACK
1.282213000000000,132,0xAA,0x06,Write,ACK
1.282235500000000,132,0xAA,0x07,Write,ACK
1.282258000000000,132,0xAA,0x08,Write,ACK
1.282280500000000,132,0xAA,0x11,Write,ACK
1.282303000000000,132,0xAA,0x22,Write,ACK
1.282325500000000,132,0xAA,0x33,Write,ACK
1.282348000000000,132,0xAA,0x44,Write,ACK
1.282370500000000,132,0xAA,0x55,Write,ACK
1.282393000000000,132,0xAA,0x66,Write,ACK
1.282415500000000,132,0xAA,0x77,Write,ACK
1.282438000000000,132,0xAA,0x88,Write,ACK
1.282460500000000,132,0xAA,0x40,Write,ACK
1.346448000000000,133,0xAB,0x00,Read,ACK
1.346470500000000,133,0xAB,0x00,Read,ACK
1.346493000000000,133,0xAB,0x00,Read,ACK
1.346515500000000,133,0xAB,0x72,Read,NAK
1.347689500000000,134,0xAB,0x97,Read,ACK
1.347712000000000,134,0xAB,0x15,Read,ACK
1.347734500000000,134,0xAB,0xD8,Read,ACK
1.347757000000000,134,0xAB,0x91,Read,ACK
1.347779500000000,134,0xAB,0xD7,Read,ACK
1.347802000000000,134,0xAB,0x4C,Read,ACK
1.347824500000000,134,0xAB,0x9A,Read,ACK
1.347847000000000,134,0xAB,0xC4,Read,ACK
1.347869500000000,134,0xAB,0x8E,Read,ACK
1.347892000000000,134,0xAB,0x65,Read,ACK
1.347914500000000,134,0xAB,0x77,Read,ACK
1.347937000000000,134,0xAB,0x8C,Read,ACK
1.347959500000000,134,0xAB,0x89,Read,ACK
1.347982000000000,134,0xAB,0xDE,Read,ACK
1.348004500000000,134,0xAB,0x90,Read,ACK
1.348027000000000,134,0xAB,0xAE,Read,ACK
1.348049500000000,134,0xAB,0xE3,Read,ACK
1.348072000000000,134,0xAB,0x6D,Read,ACK
1.348094500000000,134,0xAB,0x79,Read,ACK
1.348117000000000,134,0xAB,0xAD,Read,ACK
1.348139500000000,134,0xAB,0x21,Read,ACK
1.348162000000000,134,0xAB,0x4C,Read,ACK
1.348184500000000,134,0xAB,0xB2,Read,ACK
1.348207000000000,134,0xAB,0xBD,Read,ACK
1.348229500000000,134,0xAB,0xF6,Read,ACK
1.348252000000000,134,0xAB,0x9D,Read,ACK
1.348274500000000,134,0xAB,0xEC,Read,ACK
1.348297000000000,134,0xAB,0xA0,Read,ACK
1.348319500000000,134,0xAB,0xC8,Read,ACK
1.348342000000000,134,0xAB,0x2B,Read,ACK
1.348364500000000,134,0xAB,0x21,Read,ACK
1.348387000000000,134,0xAB,0x34,Read,ACK
1.348409500000000,134,0xAB,0x06,Read,ACK
1.348432000000000,134,0xAB,0xD8,Read,ACK
1.348454500000000,134,0xAB,0x75,Read,ACK
1.348477000000000,134,0xAB,0xBF,Read,ACK
1.348499500000000,134,0xAB,0x01,Read,ACK
1.348522000000000,134,0xAB,0x0F,Read,ACK
1.348544500000000,134,0xAB,0x5E,Read,ACK
1.348567000000000,134,0xAB,0x6D,Read,ACK
1.348589500000000,134,0xAB,0x94,Read,ACK
1.348612000000000,134,0xAB,0xB2,Read,ACK
1.348634500000000,134,0xAB,0x44,Read,ACK
1.348657000000000,134,0xAB,0x8B,Read,ACK
1.348679500000000,134,0xAB,0x70,Read,ACK
1.348702000000000,134,0xAB,0xC4,Read,ACK
1.348724500000000,134,0xAB,0x8D,Read,ACK
1.348747000000000,134,0xAB,0xF9,Read,ACK
1.348769500000000,134,0xAB,0x85,Read,ACK
1.348792000000000,134,0xAB,0xC5,Read,ACK
1.348814500000000,134,0xAB,0x41,Read,ACK
1.348837000000000,134,0xAB,0x8A,Read,ACK
1.348859500000000,134,0xAB,0xA8,Read,ACK
1.348882000000000,134,0xAB,0x99,Read,ACK
1.348904500000000,134,0xAB,0x96,Read,ACK
1.348927000000000,134,0xAB,0xA5,Read,ACK
1.348949500000000,134,0xAB,0xB1,Read,ACK
1.348972000000000,134,0xAB,0xBE,Read,ACK
1.348994500000000,134,0xAB,0xEC,Read,ACK
1.349017000000000,134,0xAB,0x2F,Read,ACK
1.349039500000000,134,0xAB,0xAD,Read,ACK
1.349062000000000,134,0xAB,0xE9,Read,ACK
1.349084500000000,134,0xAB,0x16,Read,ACK
1.349107000000000,134,0xAB,0xA0,Read,ACK
1.349130000000000,134,0xAB,0xC8,Read,ACK
1.349152500000000,134,0xAB,0x8F,Read,ACK
1.349175000000000,134,0xAB,0x7E,Read,ACK
1.349197500000000,134,0xAB,0xB6,Read,ACK
1.349220000000000,134,0xAB,0xC3,Read,ACK
1.349242500000000,134,0xAB,0x84,Read,ACK
1.349265000000000,134,0xAB,0xB6,Read,ACK
1.349287500000000,134,0xAB,0x4A,Read,ACK
1.349310000000000,134,0xAB,0x04,Read,ACK
1.349332500000000,134,0xAB,0x04,Read,ACK
1.349355000000000,134,0xAB,0xA5,Read,ACK
1.349377500000000,134,0xAB,0xD8,Read,ACK
1.349400000000000,134,0xAB,0xEC,Read,ACK
1.349422500000000,134,0xAB,0x53,Read,ACK
1.349445000000000,134,0xAB,0x0A,Read,ACK
1.349467500000000,134,0xAB,0x8B,Read,ACK
1.349490000000000,134,0xAB,0xE7,Read,ACK
1.349512500000000,134,0xAB,0xF4,Read,ACK
1.349535000000000,134,0xAB,0x62,Read,ACK
1.349557500000000,134,0xAB,0x3F,Read,ACK
1.349580000000000,134,0xAB,0x57,Read,ACK
1.349602500000000,134,0xAB,0xD5,Read,ACK
1.349625000000000,134,0xAB,0xD3,Read,ACK
1.349647500000000,134,0xAB,0x64,Read,ACK
1.349670000000000,134,0xAB,0x9A,Read,ACK
1.349692500000000,134,0xAB,0x6A,Read,ACK
1.349715000000000,134,0xAB,0x60,Read,ACK
1.349737500000000,134,0xAB,0xFE,Read,ACK
1.349760000000000,134,0xAB,0xB7,Read,ACK
1.349782500000000,134,0xAB,0xDD,Read,ACK
1.349805000000000,134,0xAB,0x02,Read,ACK
1.349827500000000,134,0xAB,0xB4,Read,ACK
1.349850000000000,134,0xAB,0xCB,Read,ACK
1.349872500000000,134,0xAB,0x5F,Read,ACK
1.349895000000000,134,0xAB,0x66,Read,ACK
1.349917500000000,134,0xAB,0x07,Read,ACK
1.349940000000000,134,0xAB,0x88,Read,ACK
1.349962500000000,134,0xAB,0xE0,Read,ACK
1.349985000000000,134,0xAB,0xFA,Read,ACK
1.350007500000000,134,0xAB,0xE2,Read,ACK
1.350030000000000,134,0xAB,0xFF,Read,ACK
1.350052500000000,134,0xAB,0x41,Read,ACK
1.350075000000000,134,0xAB,0x2E,Read,ACK
1.350097500000000,134,0xAB,0x85,Read,ACK
1.350120000000000,134,0xAB,0x89,Read,ACK
1.350142500000000,134,0xAB,0x2D,Read,ACK
1.350165000000000,134,0xAB,0x4C,Read,ACK
1.350187500000000,134,0xAB,0x55,Read,ACK
1.350210000000000,134,0xAB,0x90,Read,ACK
1.350232500000000,134,0xAB,0x00,Read,NAK
1.392429500000000,135,0xAA,0x00,Write,ACK
1.392452000000000,135,0xAA,0x3D,Write,ACK
1.392474500000000,135,0xAA,0x01,Write,ACK
1.392497000000000,135,0xAA,0x00,Write,ACK
1.392519500000000,135,0xAA,0x70,Write,ACK
1.392542000000000,135,0xAA,0x97,Write,ACK
1.392564500000000,135,0xAA,0x15,Write,ACK
1.392587000000000,135,0xAA,0xD8,Write,ACK
1.392609500000000,135,0xAA,0x91,Write,ACK
1.392632000000000,135,0xAA,0xD7,Write,ACK
1.392654500000000,135,0xAA,0x4C,Write,ACK
1.392677000000000,135,0xAA,0x9A,Write,ACK
1.392699500000000,135,0xAA,0xC4,Write,ACK
1.392722000000000,135,0xAA,0x8E,Write,ACK
1.392744500000000,135,0xAA,0x65,Write,ACK
1.392767000000000,135,0xAA,0x77,Write,ACK
1.392789500000000,135,0xAA,0x8C,Write,ACK
1.392812000000000,135,0xAA,0x89,Write,ACK
1.392834500000000,135,0xAA,0xDE,Write,ACK
1.392857000000000,135,0xAA,0x90,Write,ACK
1.392879500000000,135,0xAA,0xAE,Write,ACK
1.392902000000000,135,0xAA,0xE3,Write,ACK
1.392924500000000,135,0xAA,0x6D,Write,ACK
1.392947000000000,135,0xAA,0x79,Write,ACK
1.392969500000000,135,0xAA,0xAD,Write,ACK
1.392992000000000,135,0xAA,0x21,Write,ACK
1.393014500000000,135,0xAA,0x4C,Write,ACK
1.393037000000000,135,0xAA,0xB2,Write,ACK
1.393059500000000,135,0xAA,0xBD,Write,ACK
1.393082000000000,135,0xAA,0xF6,Write,ACK
1.393104500000000,135,0xAA,0x9D,Write,ACK
1.393127000000000,135,0xAA,0xEC,Write,ACK
1.393149500000000,135,0xAA,0xA0,Write,ACK
1.393172000000000,135,0xAA,0xC8,Write,ACK
1.393194500000000,135,0xAA,0x2B,Write,ACK
1.393217000000000,135,0xAA,0x21,Write,ACK
1.393239500000000,135,0xAA,0x34,Write,ACK
1.393262000000000,135,0xAA,0x06,Write,ACK
1.393284500000000,135,0xAA,0xD8,Write,ACK
1.393307000000000,135,0xAA,0x75,Write,ACK
1.393329500000000,135,0xAA,0xBF,Write,ACK
1.393352000000000,135,0xAA,0x01,Write,ACK
1.393374500000000,135,0xAA,0x0F,Write,ACK
1.393397000000000,135,0xAA,0x5E,Write,ACK
1.393419500000000,135,0xAA,0x6D,Write,ACK
1.393442000000000,135,0xAA,0x94,Write,ACK
1.393464500000000,135,0xAA,0xB2,Write,ACK
1.393487000000000,135,0xAA,0x44,Write,ACK
1.393509500000000,135,0xAA,0x8B,Write,ACK
1.393532000000000,135,0xAA,0x70,Write,ACK
1.393554500000000,135,0xAA,0xC4,Write,ACK
1.393577000000000,135,0xAA,0x8D,Write,ACK
1.393599500000000,135,0xAA,0xF9,Write,ACK
1.393622000000000,135,0xAA,0x85,Write,ACK
1.393644500000000,135,0xAA,0xC5,Write,ACK
1.393667000000000,135,0xAA,0x41,Write,ACK
1.393689500000000,135,0xAA,0x8A,Write,ACK
1.393712000000000,135,0xAA,0xA8,Write,ACK
1.393734500000000,135,0xAA,0x99,Write,ACK
1.393757000000000,135,0xAA,0x96,Write,ACK
1.393779500000000,135,0xAA,0xA5,Write,ACK
1.393802500000000,135,0xAA,0xB1,Write,ACK
1.393825000000000,135,0xAA,0xBE,Write,ACK
1.393847500000000,135,0xAA,0xEC,Write,ACK
1.393870000000000,135,0xAA,0x2F,Write,ACK
1.393892500000000,135,0xAA,0xAD,Write,ACK
1.393915000000000,135,0xAA,0xE9,Write,ACK
1.393937500000000,135,0xAA,0x16,Write,ACK
1.393960000000000,135,0xAA,0xA0,Write,ACK
1.393982500000000,135,0xAA,0xC8,Write,ACK
1.394005000000000,135,0xAA,0x8F,Write,ACK
1.394027500000000,135,0xAA,0x7E,Write,ACK
1.394050000000000,135,0xAA,0xB6,Write,ACK
1.394072500000000,135,0xAA,0xC3,Write,ACK
1.394095000000000,135,0xAA,0x84,Write,ACK
1.394117500000000,135,0xAA,0xB6,Write,ACK
1.394140000000000,135,0xAA,0x4A,Write,ACK
1.394162500000000,135,0xAA,0x04,Write,ACK
1.394185000000000,135,0xAA,0x04,Write,ACK
1.394207500000000,135,0xAA,0xA5,Write,ACK
1.394230000000000,135,0xAA,0xD8,Write,ACK
1.394252500000000,135,0xAA,0xEC,Write,ACK
1.394275000000000,135,0xAA,0x53,Write,ACK
1.394297500000000,135,0xAA,0x0A,Write,ACK
1.394320000000000,135,0xAA,0x8B,Write,ACK
1.394342500000000,135,0xAA,0xE7,Write,ACK
1.394365000000000,135,0xAA,0xF4,Write,ACK
1.394387500000000,135,0xAA,0x62,Write,ACK
1.394410000000000,135,0xAA,0x3F,Write,ACK
1.394432500000000,135,0xAA,0x57,Write,ACK
1.394455000000000,135,0xAA,0xD5,Write,ACK
1.394477500000000,135,0xAA,0xD3,Write,ACK
1.394500000000000,135,0xAA,0x64,Write,ACK
1.394522500000000,135,0xAA,0x9A,Write,ACK
1.394545000000000,135,0xAA,0x6A,Write,ACK
1.394567500000000,135,0xAA,0x60,Write,ACK
1.394590000000000,135,0xAA,0xFE,Write,ACK
1.394612500000000,135,0xAA,0xB7,Write,ACK
1.394635000000000,135,0xAA,0xDD,Write,ACK
1.394657500000000,135,0xAA,0x02,Write,ACK
1.394680000000000,135,0xAA,0xB4,Write,ACK
1.394702500000000,135,0xAA,0xCB,Write,ACK
1.394725000000000,135,0xAA,0x5F,Write,ACK
1.394747500000000,135,0xAA,0x66,Write,ACK
1.394770000000000,135,0xAA,0x07,Write,ACK
1.394792500000000,135,0xAA,0x88,Write,ACK
1.394815000000000,135,0xAA,0xE0,Write,ACK
1.394837500000000,135,0xAA,0xFA,Write,ACK
1.394860000000000,135,0xAA,0xE2,Write,ACK
1.394882500000000,135,0xAA,0xFF,Write,ACK
1.394905000000000,135,0xAA,0x41,Write,ACK
1.394927500000000,135,0xAA,0x2E,Write,ACK
1.394950000000000,135,0xAA,0x85,Write,ACK
1.394972500000000,135,0xAA,0x89,Write,ACK
1.394995000000000,135,0xAA,0x2D,Write,ACK
1.395017500000000,135,0xAA,0x4C,Write,ACK
1.395040000000000,135,0xAA,0x55,Write,ACK
1.395062500000000,135,0xAA,0x10,Write,ACK
1.438004500000000,136,0xAB,0x00,Read,ACK
1.438027000000000,136,0xAB,0x00,Read,ACK
1.438049500000000,136,0xAB,0x00,Read,ACK
1.438072000000000,136,0xAB,0x12,Read,NAK
1.439244500000000,137,0xAB,0x01,Read,ACK
1.439267000000000,137,0xAB,0x02,Read,ACK
1.439289500000000,137,0xAB,0x03,Read,ACK
1.439312000000000,137,0xAB,0x04,Read,ACK
1.439334500000000,137,0xAB,0x05,Read,ACK
1.439357000000000,137,0xAB,0x06,Read,ACK
1.439379500000000,137,0xAB,0x07,Read,ACK
1.439402000000000,137,0xAB,0x08,Read,ACK
1.439424500000000,137,0xAB,0x11,Read,ACK
1.439447000000000,137,0xAB,0x22,Read,ACK
1.439469500000000,137,0xAB,0x33,Read,ACK
1.439492500000000,137,0xAB,0x44,Read,ACK
1.439515000000000,137,0xAB,0x55,Read,ACK
1.439537500000000,137,0xAB,0x66,Read,ACK
1.439560000000000,137,0xAB,0x77,Read,ACK
1.439582500000000,137,0xAB,0x88,Read,ACK
1.439605000000000,137,0xAB,0x90,Read,ACK
1.439627500000000,137,0xAB,0x00,Read,NAK
1.449853000000000,138,0xAA,0x00,Write,ACK
1.449875500000000,138,0xAA,0xFE,Write,ACK
1.449898000000000,138,0xAA,0x55,Write,ACK
1.449920500000000,138,0xAA,0x00,Write,ACK
1.452199000000000,139,0xAB,0x00,Read,ACK
1.452221500000000,139,0xAB,0x00,Read,ACK
1.452244000000000,139,0xAB,0x00,Read,ACK
1.452266500000000,139,0xAB,0x02,Read,NAK
1.453442000000000,140,0xAB,0x90,Read,ACK
1.453464500000000,140,0xAB,0x00,Read,NAK
1.457196000000000,141,0xAA,0x00,Write,ACK
1.457218500000000,141,0xAA,0xFD,Write,ACK
1.457241000000000,141,0xAA,0x55,Write,ACK
1.457263500000000,141,0xAA,0x00,Write,ACK
1.457286000000000,141,0xAA,0x04,Write,ACK
1.510226500000000,142,0xAB,0x00,Read,ACK
1.510249000000000,142,0xAB,0x00,Read,ACK
1.510271500000000,142,0xAB,0x00,Read,ACK
1.510294000000000,142,0xAB,0x06,Read,NAK
1.511468000000000,143,0xAB,0x00,Read,ACK
1.511490500000000,143,0xAB,0x05,Read,ACK
1.511513000000000,143,0xAB,0x9A,Read,ACK
1.511535500000000,143,0xAB,0x10,Read,ACK
1.511558000000000,143,0xAB,0x90,Read,ACK
1.511580500000000,143,0xAB,0x00,Read,NAK
1.521049000000000,144,0xAA,0x00,Write,ACK
1.521071500000000,144,0xAA,0x84,Write,ACK
1.521094000000000,144,0xAA,0x00,Write,ACK
1.521116500000000,144,0xAA,0x00,Write,ACK
1.521139000000000,144,0xAA,0x20,Write,ACK
1.523706000000000,145,0xAB,0x00,Read,ACK
1.523728500000000,145,0xAB,0x00,Read,ACK
1.523751000000000,145,0xAB,0x00,Read,ACK
1.523773500000000,145,0xAB,0x22,Read,NAK
1.524946500000000,146,0xAB,0x51,Read,ACK
1.524969000000000,146,0xAB,0x51,Read,ACK
1.524991500000000,146,0xAB,0xDD,Read,ACK
1.525014000000000,146,0xAB,0xA1,Read,ACK
1.525036500000000,146,0xAB,0x83,Read,ACK
1.525059000000000,146,0xAB,0xBA,Read,ACK
1.525081500000000,146,0xAB,0xB8,Read,ACK
1.525104000000000,146,0xAB,0xC1,Read,ACK
1.525126500000000,146,0xAB,0x9A,Read,ACK
1.525149000000000,146,0xAB,0x91,Read,ACK
1.525171500000000,146,0xAB,0x06,Read,ACK
1.525194000000000,146,0xAB,0x89,Read,ACK
1.525216500000000,146,0xAB,0x9D,Read,ACK
1.525239000000000,146,0xAB,0xE3,Read,ACK
1.525261500000000,146,0xAB,0x17,Read,ACK
1.525284000000000,146,0xAB,0x57,Read,ACK
1.525306500000000,146,0xAB,0x60,Read,ACK
1.525329000000000,146,0xAB,0x94,Read,ACK
1.525351500000000,146,0xAB,0x8C,Read,ACK
1.525374000000000,146,0xAB,0x63,Read,ACK
1.525396500000000,146,0xAB,0xB7,Read,ACK
1.525419000000000,146,0xAB,0x0A,Read,ACK
1.525441500000000,146,0xAB,0x56,Read,ACK
1.525464000000000,146,0xAB,0x66,Read,ACK
1.525486500000000,146,0xAB,0xEE,Read,ACK
1.525509000000000,146,0xAB,0x7F,Read,ACK
1.525531500000000,146,0xAB,0x3F,Read,ACK
1.525554000000000,146,0xAB,0x86,Read,ACK
1.525576500000000,146,0xAB,0xB5,Read,ACK
1.525599000000000,146,0xAB,0x06,Read,ACK
1.525621500000000,146,0xAB,0x30,Read,ACK
1.525644000000000,146,0xAB,0x39,Read,ACK
1.525666500000000,146,0xAB,0x90,Read,ACK
1.525689000000000,146,0xAB,0x00,Read,NAK
1.541878500000000,147,0xAA,0x00,Write,ACK
1.541901000000000,147,0xAA,0xC1,Write,ACK
1.541923500000000,147,0xAA,0x01,Write,ACK
1.541946000000000,147,0xAA,0x00,Write,ACK
1.541968500000000,147,0xAA,0x10,Write,ACK
1.541991000000000,147,0xAA,0x00,Write,ACK
1.542013500000000,147,0xAA,0x01,Write,ACK
1.542036000000000,147,0xAA,0x02,Write,ACK
1.542058500000000,147,0xAA,0x03,Write,ACK
1.542081000000000,147,0xAA,0x04,Write,ACK
1.542103500000000,147,0xAA,0x05,Write,ACK
1.542126000000000,147,0xAA,0x06,Write,ACK
1.542148500000000,147,0xAA,0x07,Write,ACK
1.542171000000000,147,0xAA,0x08,Write,ACK
1.542193500000000,147,0xAA,0x09,Write,ACK
1.542216000000000,147,0xAA,0x0A,Write,ACK
1.542238500000000,147,0xAA,0x0B,Write,ACK
1.542261000000000,147,0xAA,0x0C,Write,ACK
1.542283500000000,147,0xAA,0x0D,Write,ACK
1.542306000000000,147,0xAA,0x0E,Write,ACK
1.542328500000000,147,0xAA,0x0F,Write,ACK
1.550377500000000,148,0xAB,0x00,Read,ACK
1.550400000000000,148,0xAB,0x00,Read,ACK
1.550422500000000,148,0xAB,0x00,Read,ACK
1.550445000000000,148,0xAB,0x02,Read,NAK
1.551617500000000,149,0xAB,0x90,Read,ACK
1.551640000000000,149,0xAB,0x00,Read,NAK
1.553101000000000,150,0xAA,0x00,Write,ACK
1.553123500000000,150,0xAA,0xC2,Write,ACK
1.553146000000000,150,0xAA,0x01,Write,ACK
1.553168500000000,150,0xAA,0x00,Write,ACK
1.553191000000000,150,0xAA,0x10,Write,ACK
1.553213500000000,150,0xAA,0x00,Write,ACK
1.553236000000000,150,0xAA,0x11,Write,ACK
1.553258500000000,150,0xAA,0x22,Write,ACK
1.553281000000000,150,0xAA,0x33,Write,ACK
1.553303500000000,150,0xAA,0x44,Write,ACK
1.553326000000000,150,0xAA,0x55,Write,ACK
1.553348500000000,150,0xAA,0x66,Write,ACK
1.553371000000000,150,0xAA,0x77,Write,ACK
1.553393500000000,150,0xAA,0x88,Write,ACK
1.553416000000000,150,0xAA,0x99,Write,ACK
1.553438500000000,150,0xAA,0xAA,Write,ACK
1.553461000000000,150,0xAA,0xBB,Write,ACK
1.553483500000000,150,0xAA,0xCC,Write,ACK
1.553506000000000,150,0xAA,0xDD,Write,ACK
1.553528500000000,150,0xAA,0xEE,Write,ACK
1.553551000000000,150,0xAA,0xFF,Write,ACK
1.553573500000000,150,0xAA,0xFF,Write,ACK
1.561969000000000,151,0xAB,0x00,Read,ACK
1.561991500000000,151,0xAB,0x00,Read,ACK
1.562014000000000,151,0xAB,0x00,Read,ACK
1.562036500000000,151,0xAB,0x12,Read,NAK
1.563209500000000,152,0xAB,0x69,Read,ACK
1.563232000000000,152,0xAB,0xC4,Read,ACK
1.563254500000000,152,0xAB,0xE0,Read,ACK
1.563277000000000,152,0xAB,0xD8,Read,ACK
1.563299500000000,152,0xAB,0x6A,Read,ACK
1.563322000000000,152,0xAB,0x7B,Read,ACK
1.563344500000000,152,0xAB,0x04,Read,ACK
1.563367000000000,152,0xAB,0x30,Read,ACK
1.563389500000000,152,0xAB,0xD8,Read,ACK
1.563412000000000,152,0xAB,0xCD,Read,ACK
1.563434500000000,152,0xAB,0xB7,Read,ACK
1.563457000000000,152,0xAB,0x80,Read,ACK
1.563479500000000,152,0xAB,0x70,Read,ACK
1.563502000000000,152,0xAB,0xB4,Read,ACK
1.563524500000000,152,0xAB,0xC5,Read,ACK
1.563547000000000,152,0xAB,0x5A,Read,ACK
1.563569500000000,152,0xAB,0x90,Read,ACK
1.563592000000000,152,0xAB,0x00,Read,NAK
1.571094500000000,153,0xAA,0x00,Write,ACK
1.571117000000000,153,0xAA,0xC3,Write,ACK
1.571139500000000,153,0xAA,0x01,Write,ACK
1.571162000000000,153,0xAA,0x00,Write,ACK
1.571184500000000,153,0xAA,0x10,Write,ACK
1.571207000000000,153,0xAA,0x69,Write,ACK
1.571229500000000,153,0xAA,0xC4,Write,ACK
1.571252000000000,153,0xAA,0xE0,Write,ACK
1.571275000000000,153,0xAA,0xD8,Write,ACK
1.571297500000000,153,0xAA,0x6A,Write,ACK
1.571320000000000,153,0xAA,0x7B,Write,ACK
1.571342500000000,153,0xAA,0x04,Write,ACK
1.571365000000000,153,0xAA,0x30,Write,ACK
1.571387500000000,153,0xAA,0xD8,Write,ACK
1.571410000000000,153,0xAA,0xCD,Write,ACK
1.571432500000000,153,0xAA,0xB7,Write,ACK
1.571455000000000,153,0xAA,0x80,Write,ACK
1.571477500000000,153,0xAA,0x70,Write,ACK
1.571500000000000,153,0xAA,0xB4,Write,ACK
1.571522500000000,153,0xAA,0xC5,Write,ACK
1.571545000000000,153,0xAA,0x5A,Write,ACK
1.571567500000000,153,0xAA,0xFF,Write,ACK
1.579963000000000,154,0xAB,0x00,Read,ACK
1.579985500000000,154,0xAB,0x00,Read,ACK
1.580008000000000,154,0xAB,0x00,Read,ACK
1.580030500000000,154,0xAB,0x12,Read,NAK
1.581203000000000,155,0xAB,0x00,Read,ACK
1.581225500000000,155,0xAB,0x11,Read,ACK
1.581248000000000,155,0xAB,0x22,Read,ACK
1.581270500000000,155,0xAB,0x33,Read,ACK
1.581293000000000,155,0xAB,0x44,Read,ACK
1.581315500000000,155,0xAB,0x55,Read,ACK
1.581338000000000,155,0xAB,0x66,Read,ACK
1.581360500000000,155,0xAB,0x77,Read,ACK
1.581383000000000,155,0xAB,0x88,Read,ACK
1.581405500000000,155,0xAB,0x99,Read,ACK
1.581428000000000,155,0xAB,0xAA,Read,ACK
1.581450500000000,155,0xAB,0xBB,Read,ACK
1.581473000000000,155,0xAB,0xCC,Read,ACK
1.581495500000000,155,0xAB,0xDD,Read,ACK
1.581518500000000,155,0xAB,0xEE,Read,ACK
1.581541000000000,155,0xAB,0xFF,Read,ACK
1.581563500000000,155,0xAB,0x90,Read,ACK
1.581586000000000,155,0xAB,0x00,Read,NAK
1.589105500000000,156,0xAA,0x00,Write,ACK
1.589128000000000,156,0xAA,0xC1,Write,ACK
1.589150500000000,156,0xAA,0x01,Write,ACK
1.589173000000000,156,0xAA,0x01,Write,ACK
1.589195500000000,156,0xAA,0x10,Write,ACK
1.589218000000000,156,0xAA,0x69,Write,ACK
1.589240500000000,156,0xAA,0xC4,Write,ACK
1.589263000000000,156,0xAA,0xE0,Write,ACK
1.589285500000000,156,0xAA,0xD8,Write,ACK
1.589308000000000,156,0xAA,0x6A,Write,ACK
1.589330500000000,156,0xAA,0x7B,Write,ACK
1.589353000000000,156,0xAA,0x04,Write,ACK
1.589375500000000,156,0xAA,0x30,Write,ACK
1.589398000000000,156,0xAA,0xD8,Write,ACK
1.589420500000000,156,0xAA,0xCD,Write,ACK
1.589443000000000,156,0xAA,0xB7,Write,ACK
1.589465500000000,156,0xAA,0x80,Write,ACK
1.589488000000000,156,0xAA,0x70,Write,ACK
1.589510500000000,156,0xAA,0xB4,Write,ACK
1.589533000000000,156,0xAA,0xC5,Write,ACK
1.589555500000000,156,0xAA,0x5A,Write,ACK
1.597605000000000,157,0xAB,0x00,Read,ACK
1.597627500000000,157,0xAB,0x00,Read,ACK
1.597650000000000,157,0xAB,0x00,Read,ACK
1.597672500000000,157,0xAB,0x02,Read,NAK
1.598845500000000,158,0xAB,0x90,Read,ACK
1.598868000000000,158,0xAB,0x00,Read,NAK
1.600328000000000,159,0xAA,0x00,Write,ACK
1.600350500000000,159,0xAA,0xC2,Write,ACK
1.600373000000000,159,0xAA,0x01,Write,ACK
1.600395500000000,159,0xAA,0x01,Write,ACK
1.600418000000000,159,0xAA,0x10,Write,ACK
1.600440500000000,159,0xAA,0x00,Write,ACK
1.600463000000000,159,0xAA,0x11,Write,ACK
1.600485500000000,159,0xAA,0x22,Write,ACK
1.600508000000000,159,0xAA,0x33,Write,ACK
1.600530500000000,159,0xAA,0x44,Write,ACK
1.600553000000000,159,0xAA,0x55,Write,ACK
1.600575500000000,159,0xAA,0x66,Write,ACK
1.600598000000000,159,0xAA,0x77,Write,ACK
1.600620500000000,159,0xAA,0x88,Write,ACK
1.600643000000000,159,0xAA,0x99,Write,ACK
1.600665500000000,159,0xAA,0xAA,Write,ACK
1.600688000000000,159,0xAA,0xBB,Write,ACK
1.600710500000000,159,0xAA,0xCC,Write,ACK
1.600733000000000,159,0xAA,0xDD,Write,ACK
1.600755500000000,159,0xAA,0xEE,Write,ACK
1.600778500000000,159,0xAA,0xFF,Write,ACK
1.600801000000000,159,0xAA,0xFF,Write,ACK
1.609196000000000,160,0xAB,0x00,Read,ACK
1.609218500000000,160,0xAB,0x00,Read,ACK
1.609241000000000,160,0xAB,0x00,Read,ACK
1.609263500000000,160,0xAB,0x12,Read,NAK
1.610436500000000,161,0xAB,0x7D,Read,ACK
1.610459000000000,161,0xAB,0x77,Read,ACK
1.610481500000000,161,0xAB,0x86,Read,ACK
1.610504000000000,161,0xAB,0xBE,Read,ACK
1.610526500000000,161,0xAB,0x32,Read,ACK
1.610549000000000,161,0xAB,0xD0,Read,ACK
1.610571500000000,161,0xAB,0x59,Read,ACK
1.610594000000000,161,0xAB,0xA6,Read,ACK
1.610616500000000,161,0xAB,0x0C,Read,ACK
1.610639000000000,161,0xAB,0xA8,Read,ACK
1.610661500000000,161,0xAB,0x02,Read,ACK
1.610684000000000,161,0xAB,0x1A,Read,ACK
1.610706500000000,161,0xAB,0x65,Read,ACK
