Time [s],Packet ID,Address,Data,Read/Write,ACK/NAK
0.000030000000000,0,0xAA,0x00,Write,ACK
0.000052500000000,0,0xAA,0x84,Write,ACK
0.000075000000000,0,0xAA,0x00,Write,ACK
0.000097500000000,0,0xAA,0x00,Write,ACK
0.000120000000000,0,0xAA,0x20,Write,ACK
0.002687000000000,1,0xAB,0x00,Read,ACK
0.002709500000000,1,0xAB,0x00,Read,ACK
0.002732000000000,1,0xAB,0x00,Read,ACK
0.002754500000000,1,0xAB,0x22,Read,NAK
0.003927500000000,2,0xAB,0xE9,Read,ACK
0.003950000000000,2,0xAB,0x10,Read,ACK
0.003972500000000,2,0xAB,0x20,Read,ACK
0.003995000000000,2,0xAB,0x11,Read,ACK
0.004017500000000,2,0xAB,0x78,Read,ACK
0.004040000000000,2,0xAB,0xC3,Read,ACK
0.004062500000000,2,0xAB,0x37,Read,ACK
0.004085000000000,2,0xAB,0x2F,Read,ACK
0.004107500000000,2,0xAB,0xEB,Read,ACK
0.004130000000000,2,0xAB,0x2E,Read,ACK
0.004152500000000,2,0xAB,0x3B,Read,ACK
0.004175000000000,2,0xAB,0x8B,Read,ACK
0.004197500000000,2,0xAB,0xF5,Read,ACK
0.004220000000000,2,0xAB,0x31,Read,ACK
0.004242500000000,2,0xAB,0x3D,Read,ACK
0.004265000000000,2,0xAB,0x60,Read,ACK
0.004287500000000,2,0xAB,0x0C,Read,ACK
0.004310000000000,2,0xAB,0xB5,Read,ACK
0.004332500000000,2,0xAB,0x7C,Read,ACK
0.004355000000000,2,0xAB,0x8E,Read,ACK
0.004377500000000,2,0xAB,0x58,Read,ACK
0.004400000000000,2,0xAB,0xEE,Read,ACK
0.004422500000000,2,0xAB,0x31,Read,ACK
0.004445000000000,2,0xAB,0xFD,Read,ACK
0.004467500000000,2,0xAB,0xCE,Read,ACK
0.004490000000000,2,0xAB,0xD7,Read,ACK
0.004512500000000,2,0xAB,0xFE,Read,ACK
0.004535000000000,2,0xAB,0x1E,Read,ACK
0.004557500000000,2,0xAB,0x2A,Read,ACK
0.004580000000000,2,0xAB,0x3B,Read,ACK
0.004602500000000,2,0xAB,0x7C,Read,ACK
0.004625000000000,2,0xAB,0x42,Read,ACK
0.004647500000000,2,0xAB,0x90,Read,ACK
0.004670000000000,2,0xAB,0x00,Read,NAK
0.020859500000000,3,0xAA,0x00,Write,ACK
0.020882000000000,3,0xAA,0xC1,Write,ACK
0.020904500000000,3,0xAA,0x01,Write,ACK
0.020927000000000,3,0xAA,0x00,Write,ACK
0.020949500000000,3,0xAA,0x10,Write,ACK
0.020972000000000,3,0xAA,0x00,Write,ACK
0.020995000000000,3,0xAA,0x01,Write,ACK
0.021017500000000,3,0xAA,0x02,Write,ACK
0.021040000000000,3,0xAA,0x03,Write,ACK
0.021062500000000,3,0xAA,0x04,Write,ACK
0.021085000000000,3,0xAA,0x05,Write,ACK
0.021107500000000,3,0xAA,0x06,Write,ACK
0.021130000000000,3,0xAA,0x07,Write,ACK
0.021152500000000,3,0xAA,0x08,Write,ACK
0.021175000000000,3,0xAA,0x09,Write,ACK
0.021197500000000,3,0xAA,0x0A,Write,ACK
0.021220000000000,3,0xAA,0x0B,Write,ACK
0.021242500000000,3,0xAA,0x0C,Write,ACK
0.021265000000000,3,0xAA,0x0D,Write,ACK
0.021287500000000,3,0xAA,0x0E,Write,ACK
0.021310000000000,3,0xAA,0x0F,Write,ACK
0.029358500000000,4,0xAB,0x00,Read,ACK
0.029381000000000,4,0xAB,0x00,Read,ACK
0.029403500000000,4,0xAB,0x00,Read,ACK
0.029426000000000,4,0xAB,0x02,Read,NAK
0.030599000000000,5,0xAB,0x90,Read,ACK
0.030621500000000,5,0xAB,0x00,Read,NAK
0.032082000000000,6,0xAA,0x00,Write,ACK
0.032104500000000,6,0xAA,0xC2,Write,ACK
0.032127000000000,6,0xAA,0x01,Write,ACK
0.032149500000000,6,0xAA,0x00,Write,ACK
0.032172000000000,6,0xAA,0x10,Write,ACK
0.032194500000000,6,0xAA,0x00,Write,ACK
0.032217000000000,6,0xAA,0x11,Write,ACK
0.032239500000000,6,0xAA,0x22,Write,ACK
0.032262000000000,6,0xAA,0x33,Write,ACK
0.032284500000000,6,0xAA,0x44,Write,ACK
0.032307000000000,6,0xAA,0x55,Write,ACK
0.032329500000000,6,0xAA,0x66,Write,ACK
0.032352000000000,6,0xAA,0x77,Write,ACK
0.032374500000000,6,0xAA,0x88,Write,ACK
0.032397000000000,6,0xAA,0x99,Write,ACK
0.032419500000000,6,0xAA,0xAA,Write,ACK
0.032442000000000,6,0xAA,0xBB,Write,ACK
0.032464500000000,6,0xAA,0xCC,Write,ACK
0.032487000000000,6,0xAA,0xDD,Write,ACK
0.032509500000000,6,0xAA,0xEE,Write,ACK
0.032532000000000,6,0xAA,0xFF,Write,ACK
0.032554500000000,6,0xAA,0xFF,Write,ACK
0.040950000000000,7,0xAB,0x00,Read,ACK
0.040972500000000,7,0xAB,0x00,Read,ACK
0.040995000000000,7,0xAB,0x00,Read,ACK
0.041017500000000,7,0xAB,0x12,Read,NAK
0.042190500000000,8,0xAB,0x69,Read,ACK
0.042213000000000,8,0xAB,0xC4,Read,ACK
0.042235500000000,8,0xAB,0xE0,Read,ACK
0.042258000000000,8,0xAB,0xD8,Read,ACK
0.042280500000000,8,0xAB,0x6A,Read,ACK
0.042303000000000,8,0xAB,0x7B,Read,ACK
0.042325500000000,8,0xAB,0x04,Read,ACK
0.042348000000000,8,0xAB,0x30,Read,ACK
0.042370500000000,8,0xAB,0xD8,Read,ACK
0.042393000000000,8,0xAB,0xCD,Read,ACK
0.042415500000000,8,0xAB,0xB7,Read,ACK
0.042438000000000,8,0xAB,0x80,Read,ACK
0.042460500000000,8,0xAB,0x70,Read,ACK
0.042483000000000,8,0xAB,0xB4,Read,ACK
0.042505500000000,8,0xAB,0xC5,Read,ACK
0.042528000000000,8,0xAB,0x5A,Read,ACK
0.042550500000000,8,0xAB,0x90,Read,ACK
0.042573000000000,8,0xAB,0x00,Read,NAK
0.050076000000000,9,0xAA,0x00,Write,ACK
0.050098500000000,9,0xAA,0xC3,Write,ACK
0.050121000000000,9,0xAA,0x01,Write,ACK
0.050143500000000,9,0xAA,0x00,Write,ACK
0.050166000000000,9,0xAA,0x10,Write,ACK
0.050188500000000,9,0xAA,0x69,Write,ACK
0.050211000000000,9,0xAA,0xC4,Write,ACK
0.050233500000000,9,0xAA,0xE0,Write,ACK
0.050256000000000,9,0xAA,0xD8,Write,ACK
0.050278500000000,9,0xAA,0x6A,Write,ACK
0.050301000000000,9,0xAA,0x7B,Write,ACK
0.050323500000000,9,0xAA,0x04,Write,ACK
0.050346000000000,9,0xAA,0x30,Write,ACK
0.050368500000000,9,0xAA,0xD8,Write,ACK
0.050391000000000,9,0xAA,0xCD,Write,ACK
0.050413500000000,9,0xAA,0xB7,Write,ACK
0.050436000000000,9,0xAA,0x80,Write,ACK
0.050458500000000,9,0xAA,0x70,Write,ACK
0.050481000000000,9,0xAA,0xB4,Write,ACK
0.050503500000000,9,0xAA,0xC5,Write,ACK
0.050526000000000,9,0xAA,0x5A,Write,ACK
0.050548500000000,9,0xAA,0xFF,Write,ACK
0.058943500000000,10,0xAB,0x00,Read,ACK
0.058966000000000,10,0xAB,0x00,Read,ACK
0.058988500000000,10,0xAB,0x00,Read,ACK
0.059011000000000,10,0xAB,0x12,Read,NAK
0.060184000000000,11,0xAB,0x00,Read,ACK
0.060206500000000,11,0xAB,0x11,Read,ACK
0.060229000000000,11,0xAB,0x22,Read,ACK
0.060251500000000,11,0xAB,0x33,Read,ACK
0.060274000000000,11,0xAB,0x44,Read,ACK
0.060296500000000,11,0xAB,0x55,Read,ACK
0.060319000000000,11,0xAB,0x66,Read,ACK
0.060341500000000,11,0xAB,0x77,Read,ACK
0.060364000000000,11,0xAB,0x88,Read,ACK
0.060386500000000,11,0xAB,0x99,Read,ACK
0.060409000000000,11,0xAB,0xAA,Read,ACK
0.060431500000000,11,0xAB,0xBB,Read,ACK
0.060454000000000,11,0xAB,0xCC,Read,ACK
0.060476500000000,11,0xAB,0xDD,Read,ACK
0.060499000000000,11,0xAB,0xEE,Read,ACK
0.060521500000000,11,0xAB,0xFF,Read,ACK
0.060544000000000,11,0xAB,0x90,Read,ACK
0.060566500000000,11,0xAB,0x00,Read,NAK
0.068087000000000,12,0xAA,0x00,Write,ACK
0.068109500000000,12,0xAA,0xC1,Write,ACK
0.068132000000000,12,0xAA,0x01,Write,ACK
0.068154500000000,12,0xAA,0x01,Write,ACK
0.068177000000000,12,0xAA,0x10,Write,ACK
0.068199500000000,12,0xAA,0x69,Write,ACK
0.068222000000000,12,0xAA,0xC4,Write,ACK
0.068244500000000,12,0xAA,0xE0,Write,ACK
0.068267000000000,12,0xAA,0xD8,Write,ACK
0.068289500000000,12,0xAA,0x6A,Write,ACK
0.068312000000000,12,0xAA,0x7B,Write,ACK
0.068334500000000,12,0xAA,0x04,Write,ACK
0.068357000000000,12,0xAA,0x30,Write,ACK
0.068379500000000,12,0xAA,0xD8,Write,ACK
0.068402000000000,12,0xAA,0xCD,Write,ACK
0.068424500000000,12,0xAA,0xB7,Write,ACK
0.068447000000000,12,0xAA,0x80,Write,ACK
0.068469500000000,12,0xAA,0x70,Write,ACK
0.068492000000000,12,0xAA,0xB4,Write,ACK
0.068514500000000,12,0xAA,0xC5,Write,ACK
0.068537000000000,12,0xAA,0x5A,Write,ACK
0.076586000000000,13,0xAB,0x00,Read,ACK
0.076608500000000,13,0xAB,0x00,Read,ACK
0.076631000000000,13,0xAB,0x00,Read,ACK
0.076653500000000,13,0xAB,0x02,Read,NAK
0.077826000000000,14,0xAB,0x90,Read,ACK
0.077848500000000,14,0xAB,0x00,Read,NAK
0.079309500000000,15,0xAA,0x00,Write,ACK
0.079332000000000,15,0xAA,0xC2,Write,ACK
0.079354500000000,15,0xAA,0x01,Write,ACK
0.079377000000000,15,0xAA,0x01,Write,ACK
0.079399500000000,15,0xAA,0x10,Write,ACK
0.079422000000000,15,0xAA,0x00,Write,ACK
0.079444500000000,15,0xAA,0x11,Write,ACK
0.079467000000000,15,0xAA,0x22,Write,ACK
0.079489500000000,15,0xAA,0x33,Write,ACK
0.079512000000000,15,0xAA,0x44,Write,ACK
0.079534500000000,15,0xAA,0x55,Write,ACK
0.079557000000000,15,0xAA,0x66,Write,ACK
0.079579500000000,15,0xAA,0x77,Write,ACK
0.079602000000000,15,0xAA,0x88,Write,ACK
0.079624500000000,15,0xAA,0x99,Write,ACK
0.079647000000000,15,0xAA,0xAA,Write,ACK
0.079669500000000,15,0xAA,0xBB,Write,ACK
0.079692000000000,15,0xAA,0xCC,Write,ACK
0.079714500000000,15,0xAA,0xDD,Write,ACK
0.079737000000000,15,0xAA,0xEE,Write,ACK
0.079759500000000,15,0xAA,0xFF,Write,ACK
0.079782000000000,15,0xAA,0xFF,Write,ACK
0.088177500000000,16,0xAB,0x00,Read,ACK
0.088200000000000,16,0xAB,0x00,Read,ACK
0.088222500000000,16,0xAB,0x00,Read,ACK
0.088245000000000,16,0xAB,0x12,Read,NAK
0.089418000000000,17,0xAB,0x7D,Read,ACK
0.089440500000000,17,0xAB,0x77,Read,ACK
0.089463000000000,17,0xAB,0x86,Read,ACK
0.089485500000000,17,0xAB,0xBE,Read,ACK
0.089508000000000,17,0xAB,0x32,Read,ACK
0.089530500000000,17,0xAB,0xD0,Read,ACK
0.089553000000000,17,0xAB,0x59,Read,ACK
0.089575500000000,17,0xAB,0xA6,Read,ACK
0.089598000000000,17,0xAB,0x0C,Read,ACK
0.089620500000000,17,0xAB,0xA8,Read,ACK
0.089643000000000,17,0xAB,0x02,Read,ACK
0.089665500000000,17,0xAB,0x1A,Read,ACK
0.089688000000000,17,0xAB,0x65,Read,ACK
0.089710500000000,17,0xAB,0xDD,Read,ACK
0.089733000000000,17,0xAB,0x9F,Read,ACK
0.089755500000000,17,0xAB,0x09,Read,ACK
0.089778000000000,17,0xAB,0x90,Read,ACK
0.089800500000000,17,0xAB,0x00,Read,NAK
0.097303500000000,18,0xAA,0x00,Write,ACK
0.097326000000000,18,0xAA,0xC3,Write,ACK
0.097348500000000,18,0xAA,0x01,Write,ACK
0.097371000000000,18,0xAA,0x01,Write,ACK
0.097393500000000,18,0xAA,0x10,Write,ACK
0.097416000000000,18,0xAA,0x7D,Write,ACK
0.097438500000000,18,0xAA,0x77,Write,ACK
0.097461000000000,18,0xAA,0x86,Write,ACK
0.097483500000000,18,0xAA,0xBE,Write,ACK
0.097506000000000,18,0xAA,0x32,Write,ACK
0.097528500000000,18,0xAA,0xD0,Write,ACK
0.097551000000000,18,0xAA,0x59,Write,ACK
0.097573500000000,18,0xAA,0xA6,Write,ACK
0.097596000000000,18,0xAA,0x0C,Write,ACK
0.097618500000000,18,0xAA,0xA8,Write,ACK
0.097641000000000,18,0xAA,0x02,Write,ACK
0.097663500000000,18,0xAA,0x1A,Write,ACK
0.097686000000000,18,0xAA,0x65,Write,ACK
0.097708500000000,18,0xAA,0xDD,Write,ACK
0.097731000000000,18,0xAA,0x9F,Write,ACK
0.097753500000000,18,0xAA,0x09,Write,ACK
0.097776000000000,18,0xAA,0xFF,Write,ACK
0.106171000000000,19,0xAB,0x00,Read,ACK
0.106193500000000,19,0xAB,0x00,Read,ACK
0.106216000000000,19,0xAB,0x00,Read,ACK
0.106238500000000,19,0xAB,0x12,Read,NAK
0.107411500000000,20,0xAB,0x00,Read,ACK
0.107434000000000,20,0xAB,0x11,Read,ACK
0.107456500000000,20,0xAB,0x22,Read,ACK
0.107479000000000,20,0xAB,0x33,Read,ACK
0.107501500000000,20,0xAB,0x44,Read,ACK
0.107524000000000,20,0xAB,0x55,Read,ACK
0.107546500000000,20,0xAB,0x66,Read,ACK
0.107569000000000,20,0xAB,0x77,Read,ACK
0.107591500000000,20,0xAB,0x88,Read,ACK
0.107614000000000,20,0xAB,0x99,Read,ACK
0.107636500000000,20,0xAB,0xAA,Read,ACK
0.107659000000000,20,0xAB,0xBB,Read,ACK
0.107681500000000,20,0xAB,0xCC,Read,ACK
0.107704000000000,20,0xAB,0xDD,Read,ACK
0.107726500000000,20,0xAB,0xEE,Read,ACK
0.107749000000000,20,0xAB,0xFF,Read,ACK
0.107771500000000,20,0xAB,0x90,Read,ACK
0.107794000000000,20,0xAB,0x00,Read,NAK
0.115323000000000,21,0xAA,0x00,Write,ACK
0.115345500000000,21,0xAA,0xC1,Write,ACK
0.115368000000000,21,0xAA,0x01,Write,ACK
0.115390500000000,21,0xAA,0x00,Write,ACK
0.115413000000000,21,0xAA,0x18,Write,ACK
0.115435500000000,21,0xAA,0x00,Write,ACK
0.115458000000000,21,0xAA,0x01,Write,ACK
0.115480500000000,21,0xAA,0x02,Write,ACK
0.115503000000000,21,0xAA,0x03,Write,ACK
0.115525500000000,21,0xAA,0x04,Write,ACK
0.115548000000000,21,0xAA,0x05,Write,ACK
0.115570500000000,21,0xAA,0x06,Write,ACK
0.115593000000000,21,0xAA,0x07,Write,ACK
0.115615500000000,21,0xAA,0x08,Write,ACK
0.115638000000000,21,0xAA,0x09,Write,ACK
0.115660500000000,21,0xAA,0x0A,Write,ACK
0.115683000000000,21,0xAA,0x0B,Write,ACK
0.115705500000000,21,0xAA,0x0C,Write,ACK
0.115728000000000,21,0xAA,0x0D,Write,ACK
0.115750500000000,21,0xAA,0x0E,Write,ACK
0.115773000000000,21,0xAA,0x0F,Write,ACK
0.115795500000000,21,0xAA,0x10,Write,ACK
0.115818000000000,21,0xAA,0x11,Write,ACK
0.115840500000000,21,0xAA,0x12,Write,ACK
0.115863000000000,21,0xAA,0x13,Write,ACK
0.115885500000000,21,0xAA,0x14,Write,ACK
0.115908000000000,21,0xAA,0x15,Write,ACK
0.115930500000000,21,0xAA,0x16,Write,ACK
0.115953000000000,21,0xAA,0x17,Write,ACK
0.126747500000000,22,0xAB,0x00,Read,ACK
0.126770000000000,22,0xAB,0x00,Read,ACK
0.126792500000000,22,0xAB,0x00,Read,ACK
0.126815000000000,22,0xAB,0x02,Read,NAK
0.127987500000000,23,0xAB,0x90,Read,ACK
0.128010000000000,23,0xAB,0x00,Read,NAK
0.129471000000000,24,0xAA,0x00,Write,ACK
0.129493500000000,24,0xAA,0xC2,Write,ACK
0.129516000000000,24,0xAA,0x01,Write,ACK
0.129538500000000,24,0xAA,0x00,Write,ACK
0.129561000000000,24,0xAA,0x10,Write,ACK
0.129583500000000,24,0xAA,0x00,Write,ACK
0.129606000000000,24,0xAA,0x11,Write,ACK
0.129628500000000,24,0xAA,0x22,Write,ACK
0.129651000000000,24,0xAA,0x33,Write,ACK
0.129673500000000,24,0xAA,0x44,Write,ACK
0.129696000000000,24,0xAA,0x55,Write,ACK
0.129718500000000,24,0xAA,0x66,Write,ACK
0.129741000000000,24,0xAA,0x77,Write,ACK
0.129763500000000,24,0xAA,0x88,Write,ACK
0.129786000000000,24,0xAA,0x99,Write,ACK
0.129808500000000,24,0xAA,0xAA,Write,ACK
0.129831000000000,24,0xAA,0xBB,Write,ACK
0.129853500000000,24,0xAA,0xCC,Write,ACK
0.129876000000000,24,0xAA,0xDD,Write,ACK
0.129898500000000,24,0xAA,0xEE,Write,ACK
0.129921000000000,24,0xAA,0xFF,Write,ACK
0.129943500000000,24,0xAA,0xFF,Write,ACK
0.138339000000000,25,0xAB,0x00,Read,ACK
0.138361500000000,25,0xAB,0x00,Read,ACK
0.138384000000000,25,0xAB,0x00,Read,ACK
0.138406500000000,25,0xAB,0x12,Read,NAK
0.139579500000000,26,0xAB,0xDD,Read,ACK
0.139602000000000,26,0xAB,0xA9,Read,ACK
0.139624500000000,26,0xAB,0x7C,Read,ACK
0.139647000000000,26,0xAB,0xA4,Read,ACK
0.139669500000000,26,0xAB,0x86,Read,ACK
0.139692000000000,26,0xAB,0x4C,Read,ACK
0.139714500000000,26,0xAB,0xDF,Read,ACK
0.139737000000000,26,0xAB,0xE0,Read,ACK
0.139759500000000,26,0xAB,0x6E,Read,ACK
0.139782000000000,26,0xAB,0xAF,Read,ACK
0.139804500000000,26,0xAB,0x70,Read,ACK
0.139827000000000,26,0xAB,0xA0,Read,ACK
0.139849500000000,26,0xAB,0xEC,Read,ACK
0.139872000000000,26,0xAB,0x0D,Read,ACK
0.139894500000000,26,0xAB,0x71,Read,ACK
0.139917000000000,26,0xAB,0x91,Read,ACK
0.139939500000000,26,0xAB,0x90,Read,ACK
0.139962000000000,26,0xAB,0x00,Read,NAK
0.147464500000000,27,0xAA,0x00,Write,ACK
0.147487000000000,27,0xAA,0xC3,Write,ACK
0.147509500000000,27,0xAA,0x01,Write,ACK
0.147532000000000,27,0xAA,0x00,Write,ACK
0.147554500000000,27,0xAA,0x10,Write,ACK
0.147577000000000,27,0xAA,0xDD,Write,ACK
0.147599500000000,27,0xAA,0xA9,Write,ACK
0.147622000000000,27,0xAA,0x7C,Write,ACK
0.147644500000000,27,0xAA,0xA4,Write,ACK
0.147667000000000,27,0xAA,0x86,Write,ACK
0.147689500000000,27,0xAA,0x4C,Write,ACK
0.147712000000000,27,0xAA,0xDF,Write,ACK
0.147734500000000,27,0xAA,0xE0,Write,ACK
0.147757000000000,27,0xAA,0x6E,Write,ACK
0.147779500000000,27,0xAA,0xAF,Write,ACK
0.147802000000000,27,0xAA,0x70,Write,ACK
0.147824500000000,27,0xAA,0xA0,Write,ACK
0.147847000000000,27,0xAA,0xEC,Write,ACK
0.147869500000000,27,0xAA,0x0D,Write,ACK
0.147892000000000,27,0xAA,0x71,Write,ACK
0.147914500000000,27,0xAA,0x91,Write,ACK
0.147937000000000,27,0xAA,0xFF,Write,ACK
0.156332500000000,28,0xAB,0x00,Read,ACK
0.156355000000000,28,0xAB,0x00,Read,ACK
0.156378000000000,28,0xAB,0x00,Read,ACK
0.156400500000000,28,0xAB,0x12,Read,NAK
0.157573000000000,29,0xAB,0x00,Read,ACK
0.157595500000000,29,0xAB,0x11,Read,ACK
0.157618000000000,29,0xAB,0x22,Read,ACK
0.157640500000000,29,0xAB,0x33,Read,ACK
0.157663000000000,29,0xAB,0x44,Read,ACK
0.157685500000000,29,0xAB,0x55,Read,ACK
0.157708000000000,29,0xAB,0x66,Read,ACK
0.157730500000000,29,0xAB,0x77,Read,ACK
0.157753000000000,29,0xAB,0x88,Read,ACK
0.157775500000000,29,0xAB,0x99,Read,ACK
0.157798000000000,29,0xAB,0xAA,Read,ACK
0.157820500000000,29,0xAB,0xBB,Read,ACK
0.157843000000000,29,0xAB,0xCC,Read,ACK
0.157865500000000,29,0xAB,0xDD,Read,ACK
0.157888000000000,29,0xAB,0xEE,Read,ACK
0.157910500000000,29,0xAB,0xFF,Read,ACK
0.157933000000000,29,0xAB,0x90,Read,ACK
0.157955500000000,29,0xAB,0x00,Read,NAK
0.165475500000000,30,0xAA,0x00,Write,ACK
0.165498000000000,30,0xAA,0xC1,Write,ACK
0.165520500000000,30,0xAA,0x01,Write,ACK
0.165543000000000,30,0xAA,0x01,Write,ACK
0.165565500000000,30,0xAA,0x10,Write,ACK
0.165588000000000,30,0xAA,0x69,Write,ACK
0.165610500000000,30,0xAA,0xC4,Write,ACK
0.165633000000000,30,0xAA,0xE0,Write,ACK
0.165655500000000,30,0xAA,0xD8,Write,ACK
0.165678000000000,30,0xAA,0x6A,Write,ACK
0.165700500000000,30,0xAA,0x7B,Write,ACK
0.165723000000000,30,0xAA,0x04,Write,ACK
0.165745500000000,30,0xAA,0x30,Write,ACK
0.165768000000000,30,0xAA,0xD8,Write,ACK
0.165790500000000,30,0xAA,0xCD,Write,ACK
0.165813000000000,30,0xAA,0xB7,Write,ACK
0.165835500000000,30,0xAA,0x80,Write,ACK
0.165858000000000,30,0xAA,0x70,Write,ACK
0.165880500000000,30,0xAA,0xB4,Write,ACK
0.165903000000000,30,0xAA,0xC5,Write,ACK
0.165925500000000,30,0xAA,0x5A,Write,ACK
0.173975000000000,31,0xAB,0x00,Read,ACK
0.173997500000000,31,0xAB,0x00,Read,ACK
0.174020000000000,31,0xAB,0x00,Read,ACK
0.174042500000000,31,0xAB,0x02,Read,NAK
0.175215500000000,32,0xAB,0x90,Read,ACK
0.175238000000000,32,0xAB,0x00,Read,NAK
0.176698000000000,33,0xAA,0x00,Write,ACK
0.176720500000000,33,0xAA,0xC2,Write,ACK
0.176743000000000,33,0xAA,0x01,Write,ACK
0.176765500000000,33,0xAA,0x01,Write,ACK
0.176788000000000,33,0xAA,0x10,Write,ACK
0.176810500000000,33,0xAA,0x00,Write,ACK
0.176833000000000,33,0xAA,0x11,Write,ACK
0.176855500000000,33,0xAA,0x22,Write,ACK
0.176878000000000,33,0xAA,0x33,Write,ACK
0.176900500000000,33,0xAA,0x44,Write,ACK
0.176923000000000,33,0xAA,0x55,Write,ACK
0.176945500000000,33,0xAA,0x66,Write,ACK
0.176968000000000,33,0xAA,0x77,Write,ACK
0.176990500000000,33,0xAA,0x88,Write,ACK
0.177013000000000,33,0xAA,0x99,Write,ACK
0.177035500000000,33,0xAA,0xAA,Write,ACK
0.177058000000000,33,0xAA,0xBB,Write,ACK
0.177080500000000,33,0xAA,0xCC,Write,ACK
0.177103000000000,33,0xAA,0xDD,Write,ACK
0.177125500000000,33,0xAA,0xEE,Write,ACK
0.177148000000000,33,0xAA,0xFF,Write,ACK
0.177170500000000,33,0xAA,0xFF,Write,ACK
0.185566000000000,34,0xAB,0x00,Read,ACK
0.185588500000000,34,0xAB,0x00,Read,ACK
0.185611000000000,34,0xAB,0x00,Read,ACK
0.185633500000000,34,0xAB,0x12,Read,NAK
0.186806500000000,35,0xAB,0x32,Read,ACK
0.186829000000000,35,0xAB,0x2A,Read,ACK
0.186851500000000,35,0xAB,0xC9,Read,ACK
0.186874000000000,35,0xAB,0xE8,Read,ACK
0.186896500000000,35,0xAB,0xA4,Read,ACK
0.186919000000000,35,0xAB,0x38,Read,ACK
0.186941500000000,35,0xAB,0xF8,Read,ACK
0.186964000000000,35,0xAB,0x3A,Read,ACK
0.186986500000000,35,0xAB,0x75,Read,ACK
0.187009000000000,35,0xAB,0x99,Read,ACK
0.187031500000000,35,0xAB,0xBF,Read,ACK
0.187054000000000,35,0xAB,0x7B,Read,ACK
0.187076500000000,35,0xAB,0x07,Read,ACK
0.187099000000000,35,0xAB,0x68,Read,ACK
0.187121500000000,35,0xAB,0x12,Read,ACK
0.187144000000000,35,0xAB,0x01,Read,ACK
0.187166500000000,35,0xAB,0x90,Read,ACK
0.187189000000000,35,0xAB,0x00,Read,NAK
0.194692000000000,36,0xAA,0x00,Write,ACK
0.194714500000000,36,0xAA,0xC3,Write,ACK
0.194737000000000,36,0xAA,0x01,Write,ACK
0.194759500000000,36,0xAA,0x01,Write,ACK
0.194782000000000,36,0xAA,0x10,Write,ACK
0.194804500000000,36,0xAA,0x32,Write,ACK
0.194827000000000,36,0xAA,0x2A,Write,ACK
0.194849500000000,36,0xAA,0xC9,Write,ACK
0.194872000000000,36,0xAA,0xE8,Write,ACK
0.194894500000000,36,0xAA,0xA4,Write,ACK
0.194917000000000,36,0xAA,0x38,Write,ACK
0.194939500000000,36,0xAA,0xF8,Write,ACK
0.194962000000000,36,0xAA,0x3A,Write,ACK
0.194984500000000,36,0xAA,0x75,Write,ACK
0.195007000000000,36,0xAA,0x99,Write,ACK
0.195029500000000,36,0xAA,0xBF,Write,ACK
0.195052000000000,36,0xAA,0x7B,Write,ACK
0.195074500000000,36,0xAA,0x07,Write,ACK
0.195097000000000,36,0xAA,0x68,Write,ACK
0.195119500000000,36,0xAA,0x12,Write,ACK
0.195142000000000,36,0xAA,0x01,Write,ACK
0.195164500000000,36,0xAA,0xFF,Write,ACK
0.203560000000000,37,0xAB,0x00,Read,ACK
0.203582500000000,37,0xAB,0x00,Read,ACK
0.203605000000000,37,0xAB,0x00,Read,ACK
0.203627500000000,37,0xAB,0x12,Read,NAK
0.204800500000000,38,0xAB,0x00,Read,ACK
0.204823000000000,38,0xAB,0x11,Read,ACK
